Time Stamp,ID,Extended,Dir,Bus,LEN,D1,D2,D3,D4,D5,D6,D7,D8
1540924,00000118,false,Rx,0,8,5B,01,E1,20,00,00,40,00,
1541041,0000012A,false,Rx,0,8,06,2A,7F,95,73,95,77,95,
1541127,00000401,false,Rx,0,8,04,2A,7E,95,70,95,84,95,
1541214,0000012A,false,Rx,0,8,07,2A,63,95,70,95,52,95,
1541333,00000152,false,Rx,0,8,00,2A,D4,C3,FE,C2,61,C2,
1541426,00000172,false,Rx,0,8,00,2A,E1,8B,C5,8B,AE,8B,
1541544,0000020A,false,Rx,0,6,36,65,2E,A2,18,21,00,00,
1541629,0000022A,false,Rx,0,4,00,00,F9,16,00,00,00,00,
1541747,00000232,false,Rx,0,8,09,04,D3,09,CB,04,00,00,
1541832,000003B2,false,Rx,0,8,55,0E,81,04,0C,5C,BB,06,
1541950,00000401,false,Rx,0,8,05,2A,80,95,63,95,6F,95,
1542036,00000712,false,Rx,0,8,00,2A,08,07,EA,06,F4,06,
1542158,0000076C,false,Rx,0,8,7E,80,50,01,96,00,7E,21,
1542244,00000401,false,Rx,0,8,06,2A,7E,95,73,95,77,95,
1542363,0000012A,false,Rx,0,8,08,2A,40,95,50,95,5E,95,
1542448,00000401,false,Rx,0,8,07,2A,62,95,70,95,51,95,
1542534,0000013D,false,Rx,0,6,05,00,AA,1A,FF,01,00,00,
1542652,0000073D,false,Rx,0,8,03,00,EF,18,00,00,00,00,
1542769,0000012A,false,Rx,0,8,09,2A,51,95,60,95,3D,95,
1542854,00000401,false,Rx,0,8,08,2A,40,95,50,95,5D,95,
1542940,00000118,false,Rx,0,8,5C,02,E1,20,00,00,40,00,
1543058,0000079D,false,Rx,0,8,09,02,67,35,35,AB,67,2C,
1543177,00000401,false,Rx,0,8,09,2A,50,95,60,95,3C,95,
1543262,0000012A,false,Rx,0,8,0A,2A,72,95,5A,95,62,95,
1543355,00000232,false,Rx,0,8,09,04,CF,09,CA,04,00,00,
1543472,0000020A,false,Rx,0,6,36,65,2E,A2,18,21,00,00,
1543558,0000014A,false,Rx,0,8,01,2A,26,07,08,07,EA,06,
1543676,0000022A,false,Rx,0,4,00,00,F9,16,00,00,00,00,
1543793,000003B2,false,Rx,0,8,56,0E,81,04,0C,5C,BB,06,
1543879,00000401,false,Rx,0,8,0A,2A,71,95,59,95,61,95,
1543964,00000712,false,Rx,0,8,01,2A,26,07,08,07,EA,06,
1544083,00000221,false,Rx,0,8,20,41,01,00,54,51,11,3B,
1544171,0000012A,false,Rx,0,8,0B,2A,69,95,7A,95,69,95,
1544289,000007BD,false,Rx,0,8,69,0D,93,F6,1C,D2,CE,01,
1544383,0000076C,false,Rx,0,8,01,18,18,1E,21,1A,2B,0B,
1544501,00000401,false,Rx,0,8,0B,2A,68,95,79,95,68,95,
1544618,0000012A,false,Rx,0,8,0C,2A,4A,95,6E,95,57,95,
1544703,00000401,false,Rx,0,8,0C,2A,49,95,6E,95,57,95,
1544789,0000013D,false,Rx,0,6,05,00,AA,1A,FF,01,00,00,
1544907,0000073D,false,Rx,0,8,04,00,00,00,00,00,00,00,
1544993,00000401,false,Rx,0,8,0D,2A,60,95,75,95,65,95,
1545110,0000012A,false,Rx,0,8,0D,2A,60,95,76,95,66,95,
1545198,00000118,false,Rx,0,8,5D,03,E1,20,00,00,40,00,
1545283,00000401,false,Rx,0,8,0E,2A,64,95,60,95,78,95,
1545409,0000012A,false,Rx,0,8,0E,2A,66,95,61,95,78,95,
1545527,0000020A,false,Rx,0,6,36,65,2E,A2,18,21,00,00,
1545612,0000014A,false,Rx,0,8,02,0A,F4,06,26,07,FF,7F,
1545698,00000232,false,Rx,0,8,09,04,D2,09,CA,04,00,00,
1545815,000003B2,false,Rx,0,8,56,0E,83,04,0C,5C,BB,06,
1545901,00000401,false,Rx,0,8,0F,2A,70,95,74,95,6A,95,
1546018,00000712,false,Rx,0,8,02,0A,F4,06,26,07,00,00,
1546104,0000074A,false,Rx,0,8,01,00,00,00,00,00,00,00,
1546222,0000022A,false,Rx,0,4,00,00,F9,16,00,00,00,00,
1546307,0000076C,false,Rx,0,8,02,03,04,03,07,00,02,00,
1546427,00000401,false,Rx,0,8,10,2A,74,95,80,95,6E,95,
1546512,00000272,false,Rx,0,8,AB,A1,39,24,AD,72,2E,07,
1546630,0000012A,false,Rx,0,8,0F,2A,72,95,75,95,6B,95,
1546747,000002B2,false,Rx,0,5,23,B3,00,00,00,00,00,00,
1546833,00000432,false,Rx,0,2,0E,00,00,00,00,00,00,00,
1546918,00000401,false,Rx,0,8,11,2A,73,95,79,95,79,95,
1547036,0000012A,false,Rx,0,8,10,2A,75,95,81,95,6F,95,
1547122,0000031E,false,Rx,0,8,01,00,00,00,00,00,00,00,
1547241,0000041D,false,Rx,0,1,34,00,00,00,00,00,00,00,
1547327,0000021D,false,Rx,0,8,3D,00,00,0D,40,00,20,80,
1547453,0000043D,false,Rx,0,6,05,00,AA,1A,FF,01,00,00,
1547538,0000013D,false,Rx,0,6,05,00,AA,1A,FF,01,00,00,
1547624,0000025D,false,Rx,0,8,DB,8C,01,B8,4A,C1,0A,E0,
1547742,00000401,false,Rx,0,8,12,2A,7A,95,6D,95,83,95,
1547827,0000027D,false,Rx,0,8,55,03,00,56,F5,AA,58,8D,
1547946,00000541,false,Rx,0,8,23,03,AB,06,00,00,00,00,
1548031,0000029D,false,Rx,0,4,AA,06,82,13,00,00,00,00,
1548149,00000118,false,Rx,0,8,5E,04,E1,20,00,00,40,00,
1548235,000002BD,false,Rx,0,4,DE,02,23,63,00,00,00,00,
1548320,0000012A,false,Rx,0,8,11,2A,70,95,77,95,76,95,
1548414,00000244,false,Rx,0,8,23,03,AB,06,AB,1A,AB,02,
1548500,0000077D,false,Rx,0,3,3B,12,00,00,00,00,00,00,
1548585,000002BE,false,Rx,0,8,F4,01,E2,04,F4,01,FF,01,
1548670,00000401,false,Rx,0,8,13,2A,66,95,65,95,8C,95,
1548756,0000025E,false,Rx,0,8,F4,01,E2,04,88,13,FF,01,
1548841,000007DD,false,Rx,0,2,1C,01,00,00,00,00,00,00,
1548926,00000214,false,Rx,0,8,09,01,00,80,AA,06,82,33,
1549012,0000073D,false,Rx,0,8,05,E0,8F,E4,8F,03,00,00,
1549097,000002DE,false,Rx,0,8,E2,04,4A,0E,3F,00,00,00,
1549185,0000020A,false,Rx,0,6,36,65,2E,A2,18,21,00,00,
1549270,00000152,false,Rx,0,8,01,2A,48,C3,9C,C3,86,C3,
1549389,00000172,false,Rx,0,8,01,2A,B3,8B,D9,8B,F3,8B,
1549475,0000022A,false,Rx,0,4,00,00,F9,16,00,00,00,00,
1549560,00000232,false,Rx,0,8,09,04,D5,09,CB,04,00,00,
1549645,0000012A,false,Rx,0,8,12,2A,78,95,6A,95,80,95,
1549731,000002D1,false,Rx,0,2,7F,01,00,00,00,00,00,00,
1549816,000003B2,false,Rx,0,8,55,0E,82,04,0C,5C,BB,06,
1549902,00000401,false,Rx,0,8,14,2A,67,95,60,95,6C,95,
1550019,00000545,false,Rx,0,8,03,19,64,32,19,00,30,45,
1550105,00000712,false,Rx,0,8,03,00,00,00,00,00,00,00,
1550192,0000076C,false,Rx,0,8,03,59,59,59,59,66,70,00,
1550277,00000401,false,Rx,0,8,15,2A,73,95,43,95,5D,95,
1550370,0000012A,false,Rx,0,8,13,2A,63,95,63,95,89,95,
1550456,00000401,false,Rx,0,8,16,2A,70,95,62,95,66,95,
1550980,0000013D,false,Rx,0,6,05,00,AA,1A,FF,01,00,00,
1551184,0000073D,false,Rx,0,8,06,03,E6,23,B8,33,02,00,
1552042,00000401,false,Rx,0,8,17,2A,50,95,77,95,46,95,
1552413,0000012A,false,Rx,0,8,14,2A,64,95,5D,95,6A,95,
1552937,00000118,false,Rx,0,8,5F,05,E1,20,00,00,40,00,
1554040,00000401,false,Rx,0,8,18,2A,34,95,44,95,54,95,
1554410,0000012A,false,Rx,0,8,15,2A,70,95,40,95,5C,95,
1555513,00000232,false,Rx,0,8,09,04,D7,09,CB,04,00,00,
1555712,0000020A,false,Rx,0,6,36,65,2E,A2,18,21,00,00,
1555911,0000014A,false,Rx,0,8,03,00,00,00,00,00,00,00,
1556109,0000022A,false,Rx,0,4,00,00,F9,16,00,00,00,00,
1556398,000003B2,false,Rx,0,8,56,0E,82,04,0C,5C,BB,06,
1556598,00000401,false,Rx,0,8,19,2A,4F,95,4B,95,3E,95,
1556797,00000712,false,Rx,0,8,04,00,00,00,00,00,00,00,
1557412,0000012A,false,Rx,0,8,16,2A,6D,95,60,95,64,95,
1557693,000007FF,false,Rx,0,8,04,53,56,18,5E,01,00,00,
1557892,0000076C,false,Rx,0,8,04,18,1B,00,05,00,04,00,
1558177,00000401,false,Rx,0,8,1A,2A,65,95,50,95,5F,95,
1559123,000003A1,false,Rx,0,8,03,00,00,00,00,00,30,C4,
1559901,000002C4,false,Rx,0,8,4D,C0,00,02,00,00,00,00,
1560183,00000401,false,Rx,0,8,1B,2A,4F,95,78,95,60,95,
1560389,00000204,false,Rx,0,8,01,00,00,FF,00,00,00,10,
1560587,0000012A,false,Rx,0,8,17,2A,4E,95,74,95,44,95,
1560786,00000264,false,Rx,0,6,33,00,00,00,A0,00,00,00,
1560985,0000013D,false,Rx,0,6,05,00,AA,1A,FF,01,00,00,
1561281,00000224,false,Rx,0,8,04,08,00,40,19,01,10,08,
1561488,0000073D,false,Rx,0,8,07,00,00,00,00,00,00,00,
1561687,000002B4,false,Rx,0,5,5C,19,27,0F,01,00,00,00,
1561968,000003C4,false,Rx,0,8,1E,32,50,32,44,31,33,34,
1562169,00000401,false,Rx,0,8,1C,2A,3E,95,63,95,53,95,
1562946,00000118,false,Rx,0,8,60,06,E1,20,00,00,40,00,
1563397,0000012A,false,Rx,0,8,18,2A,31,95,42,95,52,95,
1564002,00000401,false,Rx,0,8,1D,2A,5B,95,64,95,62,95,
1565443,0000012A,false,Rx,0,8,19,2A,4C,95,48,95,3C,95,
1565642,0000020A,false,Rx,0,6,36,65,2E,A2,18,21,00,00,
1565840,0000022A,false,Rx,0,4,00,00,F9,16,00,00,00,00,
1566039,00000232,false,Rx,0,8,09,04,D4,09,CC,04,00,00,
1566240,000003B2,false,Rx,0,8,57,0E,83,04,0C,5C,BB,06,
1566529,00000401,false,Rx,0,8,1E,2A,61,95,4F,95,74,95,
1566729,00000712,false,Rx,0,8,05,00,00,00,00,00,00,00,
1567009,0000079D,false,Rx,0,8,09,02,67,35,35,AB,67,2C,
1567707,0000076C,false,Rx,0,8,05,A4,6C,36,46,E4,2E,00,
1568069,00000401,false,Rx,0,8,1F,2A,66,95,5E,95,50,95,
1568441,0000012A,false,Rx,0,8,1A,2A,63,95,4D,95,5D,95,
1569708,000007BD,false,Rx,0,8,69,0D,93,F6,1C,D2,CE,01,
1570070,00000401,false,Rx,0,8,20,00,00,00,00,00,00,00,
1570931,0000013D,false,Rx,0,6,05,00,AA,1A,FF,01,00,00,
1571213,0000073D,false,Rx,0,8,38,00,01,00,00,00,00,00,
1571419,0000012A,false,Rx,0,8,1B,2A,4C,95,77,95,5F,95,
1572105,00000401,false,Rx,0,8,21,00,00,00,00,00,00,00,
1572964,00000118,false,Rx,0,8,61,07,E1,20,00,00,40,00,
1573903,00000279,false,Rx,0,4,3E,C7,FC,00,00,00,00,00,
1574102,00000401,false,Rx,0,8,22,00,00,00,00,00,00,00,
1574474,0000012A,false,Rx,0,8,1C,2A,3C,95,60,95,50,95,
1575495,00000232,false,Rx,0,8,09,04,D2,09,CB,04,00,00,
1575776,00000152,false,Rx,0,8,02,0A,5A,C3,AD,C3,00,00,
1575975,00000172,false,Rx,0,8,02,0A,B9,8B,D8,8B,00,00,
1576176,0000020A,false,Rx,0,6,36,65,2E,A2,18,21,00,00,
1576465,0000014A,false,Rx,0,8,04,00,00,00,00,00,00,00,
1576665,000003B2,false,Rx,0,8,56,0E,80,04,0C,5C,BB,06,
1576945,00000401,false,Rx,0,8,23,00,00,00,00,00,00,00,
1577144,0000074A,false,Rx,0,8,02,00,00,00,00,00,00,00,
1577426,00000221,false,Rx,0,8,21,01,55,00,00,00,20,BA,
1577626,0000012A,false,Rx,0,8,1D,2A,58,95,61,95,60,95,
1577824,0000022A,false,Rx,0,4,00,00,F9,16,00,00,00,00,
1578023,0000076C,false,Rx,0,8,8A,17,A0,00,64,00,80,00,
1579380,0000012A,false,Rx,0,8,1E,2A,5F,95,4D,95,72,95,
1580970,0000013D,false,Rx,0,6,05,00,AA,1A,FF,01,00,00,
1581255,0000073D,false,Rx,0,8,89,00,00,00,08,00,00,C0,
1582367,0000012A,false,Rx,0,8,1F,2A,64,95,5C,95,4C,95,
1582973,00000118,false,Rx,0,8,62,08,E1,20,00,00,40,00,
1585479,0000012A,false,Rx,0,8,20,00,00,00,00,00,00,00,
1585678,0000020A,false,Rx,0,6,36,65,2E,A2,18,21,00,00,
1585959,0000014A,false,Rx,0,8,05,00,00,00,00,00,00,00,
1586076,0000022A,false,Rx,0,4,00,00,F9,16,00,00,00,00,
1586368,00000232,false,Rx,0,8,09,04,D4,09,CB,04,00,00,
1586567,000003B2,false,Rx,0,8,56,0E,87,04,0C,5C,BB,06,
1587670,0000076C,false,Rx,0,8,0B,02,00,D0,20,FF,0F,32,
1588448,0000012A,false,Rx,0,8,21,00,00,00,00,00,00,00,
1590373,0000012A,false,Rx,0,8,22,00,00,00,00,00,00,00,
1624130,0000013D,false,Rx,0,6,05,00,AA,1A,FF,01,00,00,
1624219,0000073D,false,Rx,0,8,0A,00,00,00,00,00,00,00,
1624304,00000339,false,Rx,0,8,40,41,00,00,00,01,40,0F,
1624430,00000118,false,Rx,0,8,63,09,E1,20,00,00,40,00,
1624515,00000545,false,Rx,0,8,3A,00,F3,60,9B,B6,49,71,
1624600,0000012A,false,Rx,0,8,23,00,00,00,00,00,00,00,
1624686,00000232,false,Rx,0,8,09,04,D7,09,CB,04,00,00,
1624771,0000020A,false,Rx,0,6,36,65,2E,A2,18,21,00,00,
1624857,0000022A,false,Rx,0,4,00,00,F9,16,00,00,00,00,
1624942,000003B2,false,Rx,0,8,56,0E,87,04,0C,5C,BB,06,
1625028,0000012A,false,Rx,0,8,00,2A,86,95,8E,95,70,95,
1625113,0000076C,false,Rx,0,8,0C,00,00,00,20,00,00,00,
1625200,0000012A,false,Rx,0,8,01,2A,80,95,98,95,88,95,
1625286,0000013D,false,Rx,0,6,05,00,AA,1A,FF,01,00,00,
1625378,0000073D,false,Rx,0,8,F0,B6,A9,02,B8,00,00,00,
1625496,0000076A,false,Rx,0,8,00,12,8C,04,13,89,44,22,
1625582,0000024A,false,Rx,0,1,01,00,00,00,00,00,00,00,
1625699,00000682,false,Rx,0,8,00,00,00,40,04,17,20,FA,
1625785,000007AA,false,Rx,0,8,66,4B,F0,62,00,6A,AF,02,
1625902,0000012A,false,Rx,0,8,02,2A,84,95,7D,95,94,95,
1625987,0000078A,false,Rx,0,8,01,00,03,00,00,00,44,5E,
1626105,00000118,false,Rx,0,8,64,0A,E1,20,00,00,40,00,
1626192,000001F9,false,Rx,0,1,00,00,00,00,00,00,00,00,
1626310,0000012A,false,Rx,0,8,03,2A,6C,95,74,95,9A,95,
1626403,00000232,false,Rx,0,8,09,04,D6,09,CB,04,00,00,
1626488,0000020A,false,Rx,0,6,36,65,2E,A2,18,21,00,00,
1626606,0000014A,false,Rx,0,8,00,2A,08,07,EA,06,F4,06,
1626691,000003B2,false,Rx,0,8,56,0E,85,04,0C,5C,BB,06,
1626809,00000401,false,Rx,0,8,00,2A,88,95,8F,95,71,95,
1626895,0000074A,false,Rx,0,8,00,00,00,00,00,00,00,00,
1626980,0000022A,false,Rx,0,4,00,00,F9,16,00,00,00,00,
1627097,0000079D,false,Rx,0,8,09,02,67,35,35,AB,67,2C,
1627185,0000012A,false,Rx,0,8,04,2A,80,95,70,95,84,95,
1627270,0000076C,false,Rx,0,8,0D,04,32,8F,BB,28,00,00,
1627395,00000401,false,Rx,0,8,01,2A,81,95,9A,95,8A,95,
1627481,000003A1,false,Rx,0,8,48,6A,4C,95,00,20,42,86,
1627566,00000401,false,Rx,0,8,02,2A,85,95,7D,95,95,95,
1627652,0000012A,false,Rx,0,8,05,2A,81,95,64,95,70,95,
1627770,000007BD,false,Rx,0,8,69,0D,93,F6,1C,D2,CE,01,
1627856,0000013D,false,Rx,0,6,05,00,AA,1A,FF,01,00,00,
1627941,0000073D,false,Rx,0,8,31,00,CC,09,00,00,D0,09,
1628059,00000401,false,Rx,0,8,03,2A,6D,95,75,95,9C,95,
1628145,00000118,false,Rx,0,8,65,0B,E1,20,00,00,40,00,
1628231,0000012A,false,Rx,0,8,06,2A,80,95,74,95,78,95,
1628316,00000401,false,Rx,0,8,04,2A,81,95,72,95,85,95,
1628409,0000012A,false,Rx,0,8,07,2A,64,95,71,95,53,95,
1628495,00000152,false,Rx,0,8,00,2A,D0,C3,2F,C3,30,C2,
1628580,00000172,false,Rx,0,8,00,2A,E4,8B,C8,8B,AF,8B,
1628666,0000020A,false,Rx,0,6,36,65,2E,A2,18,21,00,00,
1628751,0000022A,false,Rx,0,4,00,00,F9,16,00,00,00,00,
1628836,00000232,false,Rx,0,8,09,04,D4,09,CB,04,00,00,
1628922,000003B2,false,Rx,0,8,56,0E,87,04,0C,5C,BB,06,
1629007,00000401,false,Rx,0,8,05,2A,83,95,65,95,71,95,
1629093,00000712,false,Rx,0,8,00,2A,08,07,EA,06,F4,06,
1629181,0000076C,false,Rx,0,8,0E,E3,AC,EF,BB,02,00,00,
1629266,00000401,false,Rx,0,8,06,2A,80,95,74,95,79,95,
1629385,0000012A,false,Rx,0,8,08,2A,41,95,50,95,5E,95,
1629471,00000401,false,Rx,0,8,07,2A,64,95,73,95,54,95,
1629556,0000013D,false,Rx,0,6,05,00,AA,1A,FF,01,00,00,
1629641,0000073D,false,Rx,0,8,32,59,00,00,00,00,00,00,
1629727,0000012A,false,Rx,0,8,09,2A,52,95,61,95,3E,95,
1629812,00000401,false,Rx,0,8,08,2A,43,95,51,95,60,95,
1629898,00000118,false,Rx,0,8,66,0C,E1,20,00,00,40,00,
1630016,00000401,false,Rx,0,8,09,2A,53,95,62,95,3F,95,
1630101,0000012A,false,Rx,0,8,0A,2A,72,95,5B,95,63,95,
1630189,00000232,false,Rx,0,8,09,04,D5,09,CB,04,00,00,
1630274,0000020A,false,Rx,0,6,36,65,2E,A2,18,21,00,00,
1630367,0000014A,false,Rx,0,8,01,2A,26,07,08,07,EA,06,
1630453,0000022A,false,Rx,0,4,00,00,F9,16,00,00,00,00,
1630538,000003B2,false,Rx,0,8,56,0E,85,04,0C,5C,BB,06,
1630624,00000401,false,Rx,0,8,0A,2A,74,95,5C,95,64,95,
1630709,00000712,false,Rx,0,8,01,2A,26,07,12,07,EA,06,
1630795,00000221,false,Rx,0,8,20,41,01,00,54,51,31,5B,
1630880,0000012A,false,Rx,0,8,0B,2A,68,95,79,95,68,95,
1630998,0000076C,false,Rx,0,8,14,1A,20,00,64,00,80,00,
1631084,00000401,false,Rx,0,8,0B,2A,6B,95,7B,95,6A,95,
1631203,0000012A,false,Rx,0,8,0C,2A,49,95,6E,95,57,95,
1631289,00000401,false,Rx,0,8,0C,2A,4C,95,70,95,58,95,
1631382,0000013D,false,Rx,0,6,05,00,AA,1A,FF,01,00,00,
1631467,0000073D,false,Rx,0,8,03,00,EF,18,00,00,00,00,
1632073,00000401,false,Rx,0,8,0D,2A,61,95,78,95,68,95,
1632445,0000012A,false,Rx,0,8,0D,2A,60,95,75,95,65,95,
1632970,00000118,false,Rx,0,8,67,0D,E1,20,00,00,40,00,
1634072,00000401,false,Rx,0,8,0E,2A,67,95,63,95,7A,95,
1635431,0000012A,false,Rx,0,8,0E,2A,64,95,60,95,78,95,
1635630,0000020A,false,Rx,0,6,36,65,2E,A2,18,21,00,00,
1635910,0000014A,false,Rx,0,8,02,0A,F4,06,26,07,FF,7F,
1636110,00000232,false,Rx,0,8,09,04,D3,09,CB,04,00,00,
1636311,000003B2,false,Rx,0,8,56,0E,87,04,0C,5C,BB,06,
1636600,00000401,false,Rx,0,8,0F,2A,73,95,76,95,6C,95,
1636799,00000712,false,Rx,0,8,02,0A,F4,06,26,07,00,00,
1637080,0000074A,false,Rx,0,8,01,00,00,00,00,00,00,00,
1637212,0000022A,false,Rx,0,4,00,00,F9,16,00,00,00,00,
1637744,0000076C,false,Rx,0,8,15,01,00,D0,20,00,00,32,
1638025,00000401,false,Rx,0,8,10,2A,76,95,83,95,70,95,
1638396,0000012A,false,Rx,0,8,0F,2A,70,95,74,95,6A,95,
1638677,00000272,false,Rx,0,8,AB,A1,39,24,ED,72,2E,07,
1638876,000002B2,false,Rx,0,5,21,B3,00,00,00,00,00,00,
1638992,00000432,false,Rx,0,2,10,00,00,00,00,00,00,00,
1640015,00000401,false,Rx,0,8,11,2A,73,95,79,95,78,95,
1640467,0000012A,false,Rx,0,8,10,2A,74,95,80,95,6E,95,
1640992,0000075D,false,Rx,0,8,0D,00,00,00,00,00,00,00,
1641194,0000031E,false,Rx,0,8,02,00,00,00,00,00,00,00,
1641311,0000041D,false,Rx,0,1,34,00,00,00,00,00,00,00,
1641600,0000021D,false,Rx,0,8,3D,00,00,0D,40,00,20,80,
1641799,0000013D,false,Rx,0,6,05,00,AA,1A,FF,01,00,00,
1641997,0000025D,false,Rx,0,8,DB,8C,01,B8,4A,C1,0A,E0,
1642198,00000401,false,Rx,0,8,12,2A,7A,95,6C,95,83,95,
1642487,0000027D,false,Rx,0,8,55,03,00,56,F5,AA,58,8D,
1642686,0000043D,false,Rx,0,6,05,00,AA,1A,FF,01,00,00,
1642803,0000029D,false,Rx,0,4,A9,06,82,13,00,00,00,00,
1643084,00000541,false,Rx,0,8,23,03,AB,06,00,00,00,00,
1643206,000002BD,false,Rx,0,4,DE,02,23,63,00,00,00,00,
1643495,00000118,false,Rx,0,8,68,0E,E1,20,00,00,40,00,
1643695,0000012A,false,Rx,0,8,11,2A,73,95,79,95,79,95,
1643894,00000244,false,Rx,0,8,23,03,AB,06,AB,1A,AB,02,
1644177,00000401,false,Rx,0,8,13,2A,65,95,65,95,8B,95,
1644383,000002BE,false,Rx,0,8,F4,01,E2,04,F4,01,FF,01,
1644582,0000077D,false,Rx,0,3,3B,12,00,00,00,00,00,00,
1644781,0000025E,false,Rx,0,8,F4,01,E2,04,88,13,FF,01,
1644898,000007DD,false,Rx,0,2,1C,01,00,00,00,00,00,00,
1645183,00000214,false,Rx,0,8,09,01,00,80,A9,06,82,33,
1645390,0000073D,false,Rx,0,8,04,00,00,00,00,00,00,00,
1645670,00000152,false,Rx,0,8,01,2A,D0,C2,9C,C3,9E,C3,
1645869,00000172,false,Rx,0,8,01,2A,B3,8B,D9,8B,F3,8B,
1646069,0000020A,false,Rx,0,6,36,65,2E,A2,18,21,00,00,
1646190,0000022A,false,Rx,0,4,00,00,F9,16,00,00,00,00,
1646479,00000232,false,Rx,0,8,09,04,CE,09,CA,04,00,00,
1646677,0000012A,false,Rx,0,8,12,2A,7A,95,6D,95,83,95,
1646795,000002D1,false,Rx,0,2,7F,01,00,00,00,00,00,00,
1647075,000002DE,false,Rx,0,8,E1,04,4A,0E,3F,00,00,00,
1647278,000003B2,false,Rx,0,8,56,0E,89,04,0C,5C,BB,06,
1647484,00000401,false,Rx,0,8,14,2A,66,95,5F,95,6C,95,
1647764,00000712,false,Rx,0,8,03,00,00,00,00,00,00,00,
1648045,0000076C,false,Rx,0,8,16,00,00,00,20,00,00,00,
1648246,00000401,false,Rx,0,8,15,2A,73,95,43,95,5D,95,
1648453,00000545,false,Rx,0,8,03,19,64,32,19,00,50,65,
1648734,0000079D,false,Rx,0,8,09,02,67,35,35,AB,67,2C,
1649429,0000012A,false,Rx,0,8,13,2A,66,95,65,95,8C,95,
1650035,00000401,false,Rx,0,8,16,2A,6F,95,62,95,66,95,
1650976,0000013D,false,Rx,0,6,05,00,AA,1A,FF,01,00,00,
1651176,0000073D,false,Rx,0,8,05,D6,8F,E3,8F,03,00,00,
1652034,00000401,false,Rx,0,8,17,2A,50,95,76,95,46,95,
1652404,000007BD,false,Rx,0,8,69,0D,93,F6,1C,D2,CE,01,
1652604,0000012A,false,Rx,0,8,14,2A,67,95,60,95,6C,95,
1652966,00000118,false,Rx,0,8,69,0F,E1,20,00,00,40,00,
1654068,00000401,false,Rx,0,8,18,2A,34,95,44,95,54,95,
1654442,0000012A,false,Rx,0,8,15,2A,73,95,43,95,5D,95,
1655544,00000232,false,Rx,0,8,09,04,CF,09,CB,04,00,00,
1655743,0000020A,false,Rx,0,6,36,65,2E,A2,18,21,00,00,
1655943,0000014A,false,Rx,0,8,03,00,00,00,00,00,00,00,
1656142,0000022A,false,Rx,0,4,00,00,F9,16,00,00,00,00,
1656342,000003B2,false,Rx,0,8,56,0E,85,04,0C,5C,BB,06,
1656549,00000401,false,Rx,0,8,19,2A,4F,95,4B,95,3E,95,
1656830,00000712,false,Rx,0,8,04,00,00,00,00,00,00,00,
1657445,0000012A,false,Rx,0,8,16,2A,70,95,62,95,66,95,
1657726,0000076C,false,Rx,0,8,17,04,32,8F,BB,28,00,00,
1658006,000007FF,false,Rx,0,8,01,59,45,49,02,04,16,00,
1658212,00000401,false,Rx,0,8,1A,2A,65,95,50,95,5F,95,
1659164,000003A1,false,Rx,0,8,03,00,00,00,00,00,50,E4,
1659860,000002C4,false,Rx,0,8,12,BA,00,54,2E,11,1E,00,
1660141,00000401,false,Rx,0,8,1B,2A,4F,95,78,95,60,95,
1660340,00000204,false,Rx,0,8,01,00,00,FF,00,00,00,10,
1660629,0000012A,false,Rx,0,8,17,2A,50,95,77,95,46,95,
1660828,00000264,false,Rx,0,6,34,00,00,00,A0,00,00,00,
1661027,0000013D,false,Rx,0,6,05,00,AA,1A,FF,01,00,00,
1661238,00000224,false,Rx,0,8,04,08,00,40,19,01,10,08,
1661451,0000073D,false,Rx,0,8,F6,02,E6,B3,B7,35,02,00,
1661650,000002B4,false,Rx,0,5,5B,19,27,1A,01,00,00,00,
1661849,000002A4,false,Rx,0,8,20,B7,B8,C7,59,6E,F4,2C,
1662130,00000401,false,Rx,0,8,1C,2A,3E,95,63,95,53,95,
1662248,00000364,false,Rx,0,2,3C,78,00,00,00,00,00,00,
1662455,000003A4,false,Rx,0,8,00,00,00,00,00,00,00,00,
1662978,00000118,false,Rx,0,8,5A,00,E1,20,00,00,40,00,
1663260,00000284,false,Rx,0,5,10,00,00,00,00,00,00,00,
1663467,0000012A,false,Rx,0,8,18,2A,34,95,44,95,54,95,
1664073,00000401,false,Rx,0,8,1D,2A,5A,95,63,95,62,95,
1665430,0000012A,false,Rx,0,8,19,2A,4F,95,4B,95,3E,95,
1665629,0000020A,false,Rx,0,6,36,65,2E,A2,18,21,00,00,
1665828,0000022A,false,Rx,0,4,00,00,F9,16,00,00,00,00,
1666026,00000232,false,Rx,0,8,09,04,CF,09,CB,04,00,00,
1666309,000003B2,false,Rx,0,8,56,0E,86,04,0C,5C,BB,06,
1666517,00000401,false,Rx,0,8,1E,2A,61,95,50,95,74,95,
1666715,00000712,false,Rx,0,8,05,00,00,00,00,00,00,00,
1667735,0000076C,false,Rx,0,8,18,E0,AC,F1,BB,02,00,00,
1668016,00000401,false,Rx,0,8,1F,2A,65,95,5D,95,4F,95,
1668467,0000012A,false,Rx,0,8,1A,2A,65,95,50,95,5F,95,
1670058,00000401,false,Rx,0,8,20,00,00,00,00,00,00,00,
1670997,0000013D,false,Rx,0,6,05,00,AA,1A,FF,01,00,00,
1671198,0000073D,false,Rx,0,8,07,00,00,00,00,00,00,00,
1671486,0000012A,false,Rx,0,8,1B,2A,4F,95,78,95,60,95,
1672091,00000401,false,Rx,0,8,21,00,00,00,00,00,00,00,
1672708,00000118,false,Rx,0,8,5B,01,E1,20,00,00,40,00,
1673892,00000279,false,Rx,0,4,50,C8,0C,01,00,00,00,00,
1674091,00000401,false,Rx,0,8,22,00,00,00,00,00,00,00,
1710490,0000012A,false,Rx,0,8,1C,2A,3E,95,63,95,53,95,
1710577,00000232,false,Rx,0,8,09,04,D6,09,CB,04,00,00,
1710663,00000152,false,Rx,0,8,02,0A,03,C3,6C,C3,00,00,
1710748,00000172,false,Rx,0,8,02,0A,B8,8B,D8,8B,00,00,
1710834,0000020A,false,Rx,0,6,36,65,2E,A2,18,21,00,00,
1710951,0000014A,false,Rx,0,8,04,00,00,00,00,00,00,00,
1711037,000003B2,false,Rx,0,8,56,0E,84,04,0C,5C,BB,06,
1711122,00000401,false,Rx,0,8,23,00,00,00,00,00,00,00,
1711244,00000221,false,Rx,0,8,21,01,55,00,00,00,40,DA,
1711330,0000074A,false,Rx,0,8,02,00,00,00,00,00,00,00,
1711424,0000012A,false,Rx,0,8,1D,2A,5B,95,64,95,62,95,
1711509,0000022A,false,Rx,0,4,00,00,F9,16,00,00,00,00,
1711595,0000076C,false,Rx,0,8,9E,14,20,00,64,00,40,00,
1711680,0000012A,false,Rx,0,8,1E,2A,61,95,4F,95,74,95,
1711765,0000013D,false,Rx,0,6,05,00,AA,1A,FF,01,00,00,
1711851,0000073D,false,Rx,0,8,68,00,02,00,00,00,00,00,
1711936,0000012A,false,Rx,0,8,1F,2A,66,95,5E,95,50,95,
1712055,00000118,false,Rx,0,8,5C,02,E1,20,00,00,40,00,
1712140,0000012A,false,Rx,0,8,20,00,00,00,00,00,00,00,
1712227,0000020A,false,Rx,0,6,36,65,2E,A2,18,21,00,00,
1712312,0000014A,false,Rx,0,8,05,00,00,00,00,00,00,00,
1712405,0000022A,false,Rx,0,4,00,00,F9,16,00,00,00,00,
1712490,00000232,false,Rx,0,8,09,04,D4,09,CC,04,00,00,
1712576,000003B2,false,Rx,0,8,55,0E,86,04,0C,5C,BB,06,
1712694,0000076C,false,Rx,0,8,1F,03,00,D0,20,00,00,32,
1712779,0000012A,false,Rx,0,8,21,00,00,00,00,00,00,00,
1712865,0000079D,false,Rx,0,8,09,02,67,35,35,AB,67,2C,
1712950,0000012A,false,Rx,0,8,22,00,00,00,00,00,00,00,
1713035,0000013D,false,Rx,0,6,05,00,AA,1A,FF,01,00,00,
1713121,0000073D,false,Rx,0,8,89,00,00,00,08,00,00,C0,
1713208,00000339,false,Rx,0,8,40,41,00,00,00,01,40,0F,
1713326,00000118,false,Rx,0,8,5D,03,E1,20,00,00,40,00,
1713419,00000545,false,Rx,0,8,44,00,EA,70,9B,B4,69,A0,
1713505,0000012A,false,Rx,0,8,23,00,00,00,00,00,00,00,
1713590,000007BD,false,Rx,0,8,69,0D,93,F6,1C,D2,CE,01,
1713676,00000232,false,Rx,0,8,09,04,D5,09,CC,04,00,00,
1713761,0000020A,false,Rx,0,6,36,65,2E,A2,18,21,00,00,
1713847,0000022A,false,Rx,0,4,00,00,F9,16,00,00,00,00,
1713932,000003B2,false,Rx,0,8,55,0E,85,04,0C,5C,BB,06,
1714049,0000012A,false,Rx,0,8,00,2A,85,95,8C,95,6F,95,
1714135,0000076C,false,Rx,0,8,20,00,00,00,30,00,40,00,
1714222,0000012A,false,Rx,0,8,01,2A,7E,95,98,95,88,95,
1714307,0000013D,false,Rx,0,6,05,00,AA,1A,FF,01,00,00,
1714400,0000073D,false,Rx,0,8,0A,00,00,00,00,00,00,00,
1714486,0000078A,false,Rx,0,8,01,00,04,00,00,00,61,06,
1714571,0000024A,false,Rx,0,1,01,00,00,00,00,00,00,00,
1714656,00000682,false,Rx,0,8,00,00,00,40,04,17,30,0A,
1714742,000007AA,false,Rx,0,8,07,75,04,76,04,4F,07,00,
1714827,0000012A,false,Rx,0,8,02,2A,83,95,7C,95,93,95,
1714913,000003AA,false,Rx,0,8,00,00,00,00,00,00,00,00,
1714998,00000118,false,Rx,0,8,5E,04,E1,20,00,00,40,00,
1715084,000001F9,false,Rx,0,1,00,00,00,00,00,00,00,00,
1715171,0000012A,false,Rx,0,8,03,2A,6C,95,74,95,98,95,
1715256,00000232,false,Rx,0,8,09,04,D4,09,CC,04,00,00,
1715342,0000020A,false,Rx,0,6,36,65,2E,A2,18,21,00,00,
1715468,0000014A,false,Rx,0,8,00,2A,08,07,EA,06,F4,06,
1715553,000003B2,false,Rx,0,8,56,0E,85,04,0C,5C,BB,06,
1715672,00000401,false,Rx,0,8,00,2A,88,95,8F,95,71,95,
1715757,0000074A,false,Rx,0,8,00,00,00,00,00,00,00,00,
1715875,0000022A,false,Rx,0,4,00,00,09,17,00,00,00,00,
1715960,0000012A,false,Rx,0,8,04,2A,7E,95,70,95,84,95,
1716078,0000076C,false,Rx,0,8,21,04,32,8F,BB,28,00,00,
1716165,00000401,false,Rx,0,8,01,2A,80,95,99,95,89,95,
1716283,000003A1,false,Rx,0,8,48,6A,4C,95,00,20,62,A6,
1716376,0000013D,false,Rx,0,6,05,00,AA,1A,FF,01,00,00,
1716494,0000073D,false,Rx,0,8,F0,B6,A9,02,B8,00,00,00,
1716579,00000401,false,Rx,0,8,03,2A,6D,95,75,95,9C,95,
1716697,00000118,false,Rx,0,8,5F,05,E1,20,00,00,40,00,
1716782,0000012A,false,Rx,0,8,06,2A,7E,95,73,95,77,95,
1716868,00000401,false,Rx,0,8,04,2A,80,95,72,95,85,95,
1716986,0000012A,false,Rx,0,8,07,2A,62,95,70,95,51,95,
1717071,00000152,false,Rx,0,8,00,2A,B0,C3,35,C3,59,C2,
1717191,00000172,false,Rx,0,8,00,2A,E4,8B,C8,8B,AF,8B,
1717276,0000020A,false,Rx,0,6,36,65,2E,A2,18,21,00,00,
1717369,0000022A,false,Rx,0,4,00,00,09,17,00,00,00,00,
1717454,00000232,false,Rx,0,8,09,04,D6,09,CC,04,00,00,
1717539,000003B2,false,Rx,0,8,56,0E,86,04,0C,5C,BB,06,
1717625,00000401,false,Rx,0,8,05,2A,83,95,64,95,70,95,
1717743,00000712,false,Rx,0,8,00,2A,08,07,EA,06,F4,06,
1717829,0000076C,false,Rx,0,8,22,E3,AC,EF,BB,00,00,00,
1718028,00000401,false,Rx,0,8,06,2A,80,95,74,95,78,95,
1718310,0000012A,false,Rx,0,8,08,2A,40,95,50,95,5D,95,
1720018,00000401,false,Rx,0,8,07,2A,64,95,72,95,54,95,
1720965,0000013D,false,Rx,0,6,05,00,AA,1A,FF,01,00,00,
1721253,0000073D,false,Rx,0,8,31,00,CC,F9,FF,00,D0,09,
1721461,0000012A,false,Rx,0,8,09,2A,53,95,62,95,3F,95,
1722066,00000401,false,Rx,0,8,08,2A,42,95,51,95,5F,95,
1722684,00000118,false,Rx,0,8,60,06,E1,20,00,00,40,00,
1724033,00000401,false,Rx,0,8,09,2A,52,95,61,95,3E,95,
1724567,0000012A,false,Rx,0,8,0A,2A,74,95,5C,95,64,95,
1725508,00000232,false,Rx,0,8,09,04,D7,09,CB,04,00,00,
1725707,0000020A,false,Rx,0,6,36,65,2E,A2,18,21,00,00,
1725907,0000014A,false,Rx,0,8,01,2A,26,07,12,07,EA,06,
1726106,0000022A,false,Rx,0,4,00,00,09,17,00,00,00,00,
1726305,000003B2,false,Rx,0,8,56,0E,86,04,0C,5C,BB,06,
1726594,00000401,false,Rx,0,8,0A,2A,73,95,5C,95,64,95,
1726793,00000712,false,Rx,0,8,01,2A,1C,07,12,07,EA,06,
1727159,00000221,false,Rx,0,8,20,41,01,00,54,51,51,7B,
1727529,0000012A,false,Rx,0,8,0B,2A,6B,95,7B,95,6A,95,
1727727,0000076C,false,Rx,0,8,33,00,00,00,00,44,20,84,
1728008,00000401,false,Rx,0,8,0B,2A,6B,95,7B,95,6A,95,
1729531,0000012A,false,Rx,0,8,0C,2A,4C,95,70,95,58,95,
1729730,0000079D,false,Rx,0,8,09,02,67,35,35,AB,67,2C,
1730091,00000401,false,Rx,0,8,0C,2A,4C,95,70,95,58,95,
1730951,0000013D,false,Rx,0,6,05,00,AA,1A,FF,01,00,00,
1731233,0000073D,false,Rx,0,8,32,59,00,00,00,00,00,00,
1732010,00000401,false,Rx,0,8,0D,2A,61,95,78,95,68,95,
1732294,0000012A,false,Rx,0,8,0D,2A,61,95,78,95,68,95,
1732745,00000118,false,Rx,0,8,61,07,E1,20,00,00,40,00,
1733687,000007BD,false,Rx,0,8,69,0D,93,F6,1C,D2,CE,01,
1734049,00000401,false,Rx,0,8,0E,2A,66,95,62,95,79,95,
1735486,00000232,false,Rx,0,8,09,04,D5,09,CB,04,00,00,
1735685,0000020A,false,Rx,0,6,36,65,2E,A2,18,21,00,00,
1735965,0000012A,false,Rx,0,8,0E,2A,67,95,63,95,7A,95,
1736166,0000014A,false,Rx,0,8,02,0A,F4,06,26,07,FF,7F,
1736366,000003B2,false,Rx,0,8,56,0E,88,04,0C,5C,BB,06,
1736647,00000401,false,Rx,0,8,0F,2A,73,95,76,95,6C,95,
1736846,00000712,false,Rx,0,8,02,0A,F4,06,26,07,00,00,
1737126,0000074A,false,Rx,0,8,01,00,00,00,00,00,00,00,
1737245,0000022A,false,Rx,0,4,00,00,09,17,00,00,00,00,
1737695,0000076C,false,Rx,0,8,34,00,00,00,00,00,00,00,
1738057,00000401,false,Rx,0,8,10,2A,76,95,83,95,70,95,
1738429,00000272,false,Rx,0,8,AB,A1,39,24,AD,72,2E,07,
1738709,0000012A,false,Rx,0,8,0F,2A,73,95,76,95,6C,95,
1738908,000002B2,false,Rx,0,5,21,B3,00,00,00,00,00,00,
1739025,00000432,false,Rx,0,2,12,00,00,00,00,00,00,00,
1740047,00000401,false,Rx,0,8,11,2A,74,95,7A,95,79,95,
1740500,0000012A,false,Rx,0,8,10,2A,76,95,83,95,70,95,
1740861,0000041D,false,Rx,0,1,34,00,00,00,00,00,00,00,
1741087,0000021D,false,Rx,0,8,3D,00,00,0D,40,00,20,80,
1741291,0000043D,false,Rx,0,6,05,00,AA,1A,FF,01,00,00,
1741498,0000025D,false,Rx,0,8,DB,8C,01,B8,4A,C1,0A,E0,
1741696,0000013D,false,Rx,0,6,05,00,AA,1A,FF,01,00,00,
1741976,0000027D,false,Rx,0,8,55,03,00,56,F5,AA,58,8D,
1742177,00000401,false,Rx,0,8,12,2A,7B,95,6E,95,84,95,
1742294,0000029D,false,Rx,0,4,A9,06,82,13,00,00,00,00,
1742583,00000541,false,Rx,0,8,23,03,AB,06,00,00,00,00,
1742700,000002BD,false,Rx,0,4,DE,02,23,63,00,00,00,00,
1742899,0000077D,false,Rx,0,3,3B,12,00,00,00,00,00,00,
1743098,00000118,false,Rx,0,8,62,08,E1,20,00,00,40,00,
1743388,0000012A,false,Rx,0,8,11,2A,73,95,79,95,78,95,
1743587,00000244,false,Rx,0,8,23,03,AB,06,AB,1A,AB,02,
1743705,000007DD,false,Rx,0,2,1C,01,00,00,00,00,00,00,
1743985,000002BE,false,Rx,0,8,F4,01,E2,04,F4,01,FF,01,
1744187,00000401,false,Rx,0,8,13,2A,66,95,66,95,8C,95,
1744393,0000025E,false,Rx,0,8,F4,01,E2,04,88,13,FF,01,
1744673,00000545,false,Rx,0,8,03,19,64,32,19,00,70,85,
1744872,00000214,false,Rx,0,8,09,01,00,80,A9,06,82,33,
1745158,0000073D,false,Rx,0,8,03,00,EF,18,00,00,00,00,
1745365,000002DE,false,Rx,0,8,E1,04,4A,0E,3F,00,00,00,
1745564,0000020A,false,Rx,0,6,36,65,2E,A2,18,21,00,00,
1745763,00000152,false,Rx,0,8,01,2A,4E,C3,A9,C3,91,C3,
1746043,00000172,false,Rx,0,8,01,2A,B3,8B,DA,8B,F5,8B,
1746165,0000022A,false,Rx,0,4,00,00,09,17,00,00,00,00,
1746446,0000012A,false,Rx,0,8,12,2A,7A,95,6C,95,83,95,
1746646,00000232,false,Rx,0,8,09,04,D6,09,CB,04,00,00,
1746763,000002D1,false,Rx,0,2,7F,01,00,00,00,00,00,00,
1747043,000003B2,false,Rx,0,8,55,0E,88,04,0C,5C,BB,06,
1747244,00000401,false,Rx,0,8,14,2A,66,95,60,95,6C,95,
1747452,00000712,false,Rx,0,8,03,00,00,00,00,00,00,00,
1747813,0000076C,false,Rx,0,8,35,2A,09,01,00,00,00,00,
1748013,00000401,false,Rx,0,8,15,2A,74,95,43,95,5E,95,
1749452,0000012A,false,Rx,0,8,13,2A,65,95,65,95,8B,95,
1750058,00000401,false,Rx,0,8,16,2A,70,95,63,95,67,95,
1750998,0000013D,false,Rx,0,6,05,00,AA,1A,FF,01,00,00,
1751197,0000073D,false,Rx,0,8,04,00,00,00,00,00,00,00,
1752054,00000401,false,Rx,0,8,17,2A,50,95,77,95,47,95,
1752425,0000012A,false,Rx,0,8,14,2A,66,95,5F,95,6C,95,
1752705,00000118,false,Rx,0,8,63,09,E1,20,00,00,40,00,
1754052,00000401,false,Rx,0,8,18,2A,34,95,45,95,54,95,
1754422,0000012A,false,Rx,0,8,15,2A,73,95,43,95,5D,95,
1755446,0000014A,false,Rx,0,8,03,00,00,00,00,00,00,00,
1755645,0000020A,false,Rx,0,6,36,65,2E,A2,18,21,00,00,
1755844,0000022A,false,Rx,0,4,00,00,09,17,00,00,00,00,
1756043,00000232,false,Rx,0,8,09,04,D6,09,CB,04,00,00,
1756244,000003B2,false,Rx,0,8,56,0E,85,04,0C,5C,BB,06,
1756534,00000401,false,Rx,0,8,19,2A,50,95,4C,95,3F,95,
1756732,00000712,false,Rx,0,8,04,00,00,00,00,00,00,00,
1757258,00000405,false,Rx,0,8,12,46,35,39,34,36,39,34,
1757465,0000012A,false,Rx,0,8,16,2A,6F,95,62,95,66,95,
1757746,0000076C,false,Rx,0,8,64,EB,06,C8,B9,56,BA,0C,
1757944,000007FF,false,Rx,0,8,02,46,96,2C,DC,51,95,28,
1758230,00000401,false,Rx,0,8,1A,2A,66,95,50,95,60,95,
1759429,000003A1,false,Rx,0,8,03,00,00,00,00,00,70,04,
1759872,000002C4,false,Rx,0,8,13,A3,00,49,CE,10,1A,00,
1760071,00000401,false,Rx,0,8,1B,2A,50,95,79,95,62,95,
1760361,00000204,false,Rx,0,8,01,00,00,FF,00,00,00,10,
1795462,0000012A,false,Rx,0,8,17,2A,50,95,76,95,46,95,
1795548,00000264,false,Rx,0,6,34,00,00,00,A0,00,00,00,
1795666,00000321,false,Rx,0,8,E9,4D,A7,6F,02,6A,30,0C,
1795751,0000013D,false,Rx,0,6,05,00,AA,1A,FF,01,00,00,
1795868,00000224,false,Rx,0,8,04,08,00,40,19,01,10,08,
1795954,0000073D,false,Rx,0,8,05,DA,8F,E2,8F,03,00,00,
1796072,000002B4,false,Rx,0,5,5B,19,27,10,01,00,00,00,
1796161,00000401,false,Rx,0,8,1C,2A,3E,95,63,95,54,95,
1796247,00000118,false,Rx,0,8,64,0A,E1,20,00,00,40,00,
1796372,0000012A,false,Rx,0,8,18,2A,34,95,44,95,54,95,
1796458,00000401,false,Rx,0,8,1D,2A,5B,95,64,95,62,95,
1796543,0000012A,false,Rx,0,8,19,2A,4F,95,4B,95,3E,95,
1796629,00000232,false,Rx,0,8,09,04,D7,09,CB,04,00,00,
1796714,0000020A,false,Rx,0,6,36,65,2E,A2,18,21,00,00,
1796800,0000022A,false,Rx,0,4,00,00,09,17,00,00,00,00,
1796885,000003B2,false,Rx,0,8,56,0E,85,04,0C,5C,BB,06,
1796970,00000401,false,Rx,0,8,1E,2A,61,95,50,95,74,95,
1797056,00000712,false,Rx,0,8,05,00,00,00,00,00,00,00,
1797142,0000076C,false,Rx,0,8,66,B9,BA,0F,00,00,00,00,
1797228,00000401,false,Rx,0,8,1F,2A,66,95,5E,95,50,95,
1797313,0000012A,false,Rx,0,8,1A,2A,65,95,50,95,5F,95,
1797407,00000401,false,Rx,0,8,20,00,00,00,00,00,00,00,
1797493,0000013D,false,Rx,0,6,05,00,AA,1A,FF,01,00,00,
1797578,0000073D,false,Rx,0,8,06,03,E6,93,B7,3D,02,00,
1797695,0000012A,false,Rx,0,8,1B,2A,4F,95,78,95,60,95,
1797781,0000079D,false,Rx,0,8,09,02,67,35,35,AB,67,2C,
1797866,00000401,false,Rx,0,8,21,00,00,00,00,00,00,00,
1797952,00000118,false,Rx,0,8,65,0B,E1,20,00,00,40,00,
1798037,00000279,false,Rx,0,4,51,C9,0C,01,00,00,00,00,
1798123,00000401,false,Rx,0,8,22,00,00,00,00,00,00,00,
1798210,0000012A,false,Rx,0,8,1C,2A,3E,95,63,95,53,95,
1798295,00000232,false,Rx,0,8,09,04,D7,09,CB,04,00,00,
1798389,00000152,false,Rx,0,8,02,0A,58,C3,B8,C3,00,00,
1798475,00000172,false,Rx,0,8,02,0A,B9,8B,D8,8B,00,00,
1798560,0000020A,false,Rx,0,6,36,65,2E,A2,18,21,00,00,
1798645,0000014A,false,Rx,0,8,04,00,00,00,00,00,00,00,
1798731,000003B2,false,Rx,0,8,56,0E,83,04,0C,5C,BB,06,
1798816,00000401,false,Rx,0,8,23,00,00,00,00,00,00,00,
1798902,0000074A,false,Rx,0,8,02,00,00,00,00,00,00,00,
1798987,0000022A,false,Rx,0,4,00,00,09,17,00,00,00,00,
1799072,0000012A,false,Rx,0,8,1D,2A,5A,95,63,95,62,95,
1799161,00000221,false,Rx,0,8,21,01,55,00,00,00,60,FA,
1799247,0000076C,false,Rx,0,8,67,52,0B,9C,2E,A2,2E,00,
1799332,000007BD,false,Rx,0,8,69,0D,93,F6,1C,D2,CE,01,
1799457,0000012A,false,Rx,0,8,1E,2A,61,95,50,95,74,95,
1799542,0000013D,false,Rx,0,6,05,00,AA,1A,FF,01,00,00,
1799628,0000073D,false,Rx,0,8,07,00,00,00,00,00,00,00,
1799713,0000012A,false,Rx,0,8,1F,2A,65,95,5D,95,4F,95,
1799799,00000118,false,Rx,0,8,66,0C,E1,20,00,00,40,00,
1799884,0000012A,false,Rx,0,8,20,00,00,00,00,00,00,00,
1799970,0000020A,false,Rx,0,6,36,65,2E,A2,18,21,00,00,
1800055,0000014A,false,Rx,0,8,05,00,00,00,00,00,00,00,
1800141,0000022A,false,Rx,0,4,00,00,09,17,00,00,00,00,
1800227,00000232,false,Rx,0,8,09,04,D5,09,CB,04,00,00,
1800313,000003B2,false,Rx,0,8,56,0E,85,04,0C,5C,BB,06,
1800407,0000076C,false,Rx,0,8,68,8C,FF,B3,01,3D,02,00,
1800492,0000012A,false,Rx,0,8,21,00,00,00,00,00,00,00,
1800578,0000012A,false,Rx,0,8,22,00,00,00,00,00,00,00,
1800663,0000013D,false,Rx,0,6,05,00,AA,1A,FF,01,00,00,
1800748,0000073D,false,Rx,0,8,68,00,02,00,00,00,00,00,
1800834,00000339,false,Rx,0,8,40,41,00,00,00,01,40,0F,
1800951,00000118,false,Rx,0,8,67,0D,E1,20,00,00,40,00,
1801036,00000545,false,Rx,0,8,44,00,02,51,9B,B5,89,BA,
1801122,0000012A,false,Rx,0,8,23,00,00,00,00,00,00,00,
1801241,0000020A,false,Rx,0,6,36,65,2E,A2,18,21,00,00,
1801326,0000022A,false,Rx,0,4,00,00,09,17,00,00,00,00,
1801419,000003B2,false,Rx,0,8,55,0E,83,04,0C,5C,BB,06,
1801505,0000012A,false,Rx,0,8,00,2A,88,95,8F,95,71,95,
1801590,0000076C,false,Rx,0,8,69,01,90,01,0C,00,9D,FF,
1801676,0000012A,false,Rx,0,8,01,2A,81,95,9A,95,8A,95,
1801794,0000013D,false,Rx,0,6,05,00,AA,1A,FF,01,00,00,
1801911,0000073D,false,Rx,0,8,89,00,00,00,08,00,00,C0,
1801996,0000077A,false,Rx,0,8,00,8D,D7,01,61,0D,00,00,
1802082,0000024A,false,Rx,0,1,01,00,00,00,00,00,00,00,
1802201,00000682,false,Rx,0,8,00,00,00,40,04,17,40,1A,
1802407,0000012A,false,Rx,0,8,02,2A,85,95,7D,95,95,95,
1802607,000007AA,false,Rx,0,8,C0,8B,EE,F6,00,00,00,00,
1802887,0000078A,false,Rx,0,8,01,00,05,00,00,00,5F,06,
1803087,00000118,false,Rx,0,8,68,0E,E1,20,00,00,40,00,
1803785,000001F9,false,Rx,0,1,00,00,00,00,00,00,00,00,
1804400,0000012A,false,Rx,0,8,03,2A,6D,95,75,95,9C,95,
1805503,00000232,false,Rx,0,8,09,04,D7,09,CB,04,00,00,
1805702,0000020A,false,Rx,0,6,36,65,2E,A2,18,21,00,00,
1805900,0000014A,false,Rx,0,8,00,2A,08,07,EA,06,F4,06,
1806182,000003B2,false,Rx,0,8,55,0E,81,04,0C,5C,BB,06,
1806382,00000401,false,Rx,0,8,00,2A,88,95,90,95,71,95,
1806663,0000074A,false,Rx,0,8,00,00,00,00,00,00,00,00,
1806780,0000022A,false,Rx,0,4,00,00,09,17,00,00,00,00,
1807395,0000012A,false,Rx,0,8,04,2A,81,95,72,95,85,95,
1807675,0000076C,false,Rx,0,8,6A,F6,40,9E,0E,FF,FF,FF,
1808037,00000401,false,Rx,0,8,01,2A,81,95,9A,95,8A,95,
1809304,000003A1,false,Rx,0,8,48,6A,4C,95,00,20,82,C6,
1809999,00000401,false,Rx,0,8,02,2A,86,95,7F,95,95,95,
1810446,0000012A,false,Rx,0,8,05,2A,83,95,65,95,71,95,
1810971,0000013D,false,Rx,0,6,05,00,AA,1A,FF,01,00,00,
1811253,0000073D,false,Rx,0,8,0A,00,00,00,00,00,00,00,
1812029,00000401,false,Rx,0,8,03,2A,6E,95,76,95,9C,95,
1812726,00000118,false,Rx,0,8,69,0F,E1,20,00,00,40,00,
1812925,0000079D,false,Rx,0,8,09,02,67,35,35,AB,67,2C,
1813379,0000012A,false,Rx,0,8,06,2A,80,95,74,95,79,95,
1814065,00000401,false,Rx,0,8,04,2A,81,95,72,95,86,95,
1815422,0000012A,false,Rx,0,8,07,2A,64,95,72,95,54,95,
1815621,00000152,false,Rx,0,8,00,2A,D4,C3,3A,C3,21,C2,
1815902,00000172,false,Rx,0,8,00,2A,E4,8B,C8,8B,AF,8B,
1816102,0000020A,false,Rx,0,6,36,65,2E,A2,18,21,00,00,
1816221,0000022A,false,Rx,0,4,00,00,09,17,00,00,00,00,
1816510,00000232,false,Rx,0,8,09,04,D7,09,CB,04,00,00,
1816709,000003B2,false,Rx,0,8,55,0E,83,04,0C,5C,BB,06,
1816908,00000401,false,Rx,0,8,05,2A,83,95,65,95,71,95,
1817190,00000712,false,Rx,0,8,00,2A,08,07,EA,06,F4,06,
1817640,000007BD,false,Rx,0,8,69,0D,93,F6,1C,D2,CE,01,
1817921,0000076C,false,Rx,0,8,6B,CD,06,00,00,00,00,00,
1818120,00000401,false,Rx,0,8,06,2A,81,95,75,95,79,95,
1818409,0000012A,false,Rx,0,8,08,2A,42,95,51,95,5F,95,
1820000,00000401,false,Rx,0,8,07,2A,64,95,74,95,54,95,
1821030,0000013D,false,Rx,0,6,05,00,AA,1A,FF,01,00,00,
1821245,0000073D,false,Rx,0,8,E0,B6,A9,02,B8,00,00,00,
1821451,0000012A,false,Rx,0,8,09,2A,52,95,61,95,3E,95,
1822057,00000401,false,Rx,0,8,08,2A,43,95,52,95,60,95,
1822672,00000118,false,Rx,0,8,5A,00,E1,20,00,00,40,00,
1824031,00000401,false,Rx,0,8,09,2A,53,95,63,95,3F,95,
1824395,0000012A,false,Rx,0,8,0A,2A,73,95,5C,95,64,95,
1825415,0000014A,false,Rx,0,8,01,2A,1C,07,12,07,EA,06,
1825614,0000020A,false,Rx,0,6,36,65,2E,A2,18,21,00,00,
1825812,0000022A,false,Rx,0,4,00,00,09,17,00,00,00,00,
1826011,00000232,false,Rx,0,8,09,04,D7,09,CC,04,00,00,
1826294,000003B2,false,Rx,0,8,55,0E,81,04,0C,5C,BB,06,
1826502,00000401,false,Rx,0,8,0A,2A,74,95,5C,95,64,95,
1826701,00000712,false,Rx,0,8,01,2A,26,07,12,07,EA,06,
1827145,00000221,false,Rx,0,8,20,41,01,00,54,51,71,9B,
1827433,0000012A,false,Rx,0,8,0B,2A,6B,95,7B,95,6A,95,
1827713,0000076C,false,Rx,0,8,6C,02,00,11,02,4E,0B,00,
1828075,00000401,false,Rx,0,8,0B,2A,6C,95,7C,95,6B,95,
1829434,0000012A,false,Rx,0,8,0C,2A,4C,95,70,95,58,95,
1830040,00000401,false,Rx,0,8,0C,2A,4C,95,70,95,59,95,
1830980,0000013D,false,Rx,0,6,05,00,AA,1A,FF,01,00,00,
1831261,0000073D,false,Rx,0,8,31,00,CC,E9,FF,00,D0,09,
1832036,00000401,false,Rx,0,8,0D,2A,62,95,78,95,68,95,
1832401,0000012A,false,Rx,0,8,0D,2A,61,95,78,95,68,95,
1832682,00000118,false,Rx,0,8,5B,01,E1,20,00,00,40,00,
1834031,00000401,false,Rx,0,8,0E,2A,68,95,63,95,7A,95,
1835299,0000012A,false,Rx,0,8,0E,2A,66,95,62,95,79,95,
1835506,0000020A,false,Rx,0,6,36,65,2E,A2,18,21,00,00,
1835787,0000014A,false,Rx,0,8,02,0A,F4,06,26,07,FF,7F,
1835986,00000232,false,Rx,0,8,09,04,D6,09,CC,04,00,00,
1836272,000003B2,false,Rx,0,8,56,0E,83,04,0C,5C,BB,06,
1836479,00000401,false,Rx,0,8,0F,2A,74,95,76,95,6C,95,
1836678,00000712,false,Rx,0,8,02,0A,F4,06,26,07,00,00,
1836959,0000074A,false,Rx,0,8,01,00,00,00,00,00,00,00,
1837077,0000022A,false,Rx,0,4,00,00,09,17,00,00,00,00,
1837706,0000076C,false,Rx,0,8,6D,F3,06,C9,13,7B,14,00,
1838068,00000401,false,Rx,0,8,10,2A,77,95,83,95,70,95,
1838436,0000012A,false,Rx,0,8,0F,2A,73,95,76,95,6C,95,
1839380,00000272,false,Rx,0,8,AB,A1,39,24,AD,72,2E,07,
1839580,000002B2,false,Rx,0,5,19,B3,00,00,00,00,00,00,
1839696,00000432,false,Rx,0,2,14,00,00,00,00,00,00,00,
1840138,00000401,false,Rx,0,8,11,2A,72,95,79,95,78,95,
1840427,0000012A,false,Rx,0,8,10,2A,76,95,83,95,70,95,
1840952,0000053E,false,Rx,0,8,0D,01,00,00,04,52,AD,38,
1841068,00000215,false,Rx,0,1,00,00,00,00,00,00,00,00,
1841362,00000517,false,Rx,0,8,00,00,00,00,00,00,00,00,
1841561,00000217,false,Rx,0,8,00,00,00,02,00,00,00,00,
1841760,0000013D,false,Rx,0,6,05,00,AA,1A,FF,01,00,00,
1842040,0000033D,false,Rx,0,8,1A,29,0A,BE,87,4A,FA,98,
1842241,00000401,false,Rx,0,8,12,2A,7A,95,6C,95,83,95,
1842448,0000037D,false,Rx,0,8,63,FF,63,FF,00,FC,F7,3F,
1842565,0000041D,false,Rx,0,1,34,00,00,00,00,00,00,00,
1842845,0000021D,false,Rx,0,8,3D,00,00,0D,40,00,20,80,
1843044,0000043D,false,Rx,0,6,05,00,AA,1A,FF,01,00,00,
1843247,00000118,false,Rx,0,8,5C,02,E1,20,00,00,40,00,
1843454,0000012A,false,Rx,0,8,11,2A,74,95,7A,95,79,95,
1843735,0000025D,false,Rx,0,8,DB,8C,01,B8,4A,C1,0A,E0,
1843934,00000541,false,Rx,0,8,23,03,AB,06,00,00,00,00,
1844217,0000027D,false,Rx,0,8,55,03,00,56,F5,AA,58,8D,
1844418,00000401,false,Rx,0,8,13,2A,65,95,65,95,8B,95,
1844617,0000029D,false,Rx,0,4,AA,06,82,13,00,00,00,00,
1844816,0000075D,false,Rx,0,8,00,7E,A0,81,A0,00,00,00,
1845015,000002BD,false,Rx,0,4,DE,02,23,63,00,00,00,00,
1845133,0000077D,false,Rx,0,3,3B,12,00,00,00,00,00,00,
1845333,00000244,false,Rx,0,8,23,03,AB,06,AB,1A,AB,02,
1878962,0000020A,false,Rx,0,6,36,65,2E,A2,18,21,00,00,
1879049,00000152,false,Rx,0,8,01,2A,D4,C2,93,C3,25,C3,
1879134,00000172,false,Rx,0,8,01,2A,B3,8B,DA,8B,F3,8B,
1879221,0000022A,false,Rx,0,4,00,00,09,17,00,00,00,00,
1879307,00000232,false,Rx,0,8,09,04,D9,09,CB,04,00,00,
1879432,0000012A,false,Rx,0,8,12,2A,7B,95,6E,95,84,95,
1879518,000002BE,false,Rx,0,8,F4,01,E2,04,F4,01,FF,01,
1879603,000002D1,false,Rx,0,2,7F,01,00,00,00,00,00,00,
1879688,0000025E,false,Rx,0,8,F4,01,E2,04,88,13,FF,01,
1879774,000003B2,false,Rx,0,8,56,0E,84,04,0C,5C,BB,06,
1879859,00000214,false,Rx,0,8,09,01,00,80,AA,06,82,33,
1879945,00000401,false,Rx,0,8,14,2A,66,95,5F,95,6C,95,
1880030,000002DE,false,Rx,0,8,E2,04,4A,0E,3F,00,00,00,
1880116,00000712,false,Rx,0,8,03,00,00,00,00,00,00,00,
1880203,00000545,false,Rx,0,8,03,19,64,32,19,00,90,A5,
1880289,0000076C,false,Rx,0,8,6E,25,07,00,00,00,00,00,
1880382,000007DD,false,Rx,0,2,1C,01,00,00,00,00,00,00,
1880467,0000073D,false,Rx,0,8,32,59,00,00,00,00,00,00,
1880553,0000012A,false,Rx,0,8,13,2A,66,95,66,95,8C,95,
1880638,00000401,false,Rx,0,8,16,2A,6F,95,61,95,66,95,
1880724,0000013D,false,Rx,0,6,05,00,AA,1A,FF,01,00,00,
1880809,0000073D,false,Rx,0,8,03,00,EF,18,00,00,00,00,
1880895,00000401,false,Rx,0,8,17,2A,50,95,76,95,45,95,
1881013,0000012A,false,Rx,0,8,14,2A,66,95,60,95,6C,95,
1881098,00000118,false,Rx,0,8,5D,03,E1,20,00,00,40,00,
1881218,00000401,false,Rx,0,8,18,2A,34,95,44,95,54,95,
1881304,0000012A,false,Rx,0,8,15,2A,74,95,43,95,5E,95,
1881397,0000079D,false,Rx,0,8,09,02,67,35,35,AB,67,2C,
1881483,0000014A,false,Rx,0,8,03,00,00,00,00,00,00,00,
1881568,0000020A,false,Rx,0,6,36,65,2E,A2,18,21,00,00,
1881654,0000022A,false,Rx,0,4,00,00,09,17,00,00,00,00,
1881739,00000232,false,Rx,0,8,09,04,D5,09,CB,04,00,00,
1881824,000003B2,false,Rx,0,8,56,0E,82,04,0C,5C,BB,06,
1881910,00000401,false,Rx,0,8,19,2A,4E,95,4A,95,3D,95,
1881995,00000712,false,Rx,0,8,04,00,00,00,00,00,00,00,
1882081,0000012A,false,Rx,0,8,16,2A,70,95,63,95,67,95,
1882169,0000076C,false,Rx,0,8,6F,63,32,CD,1C,CD,0C,00,
1882254,000007BD,false,Rx,0,8,69,0D,93,F6,1C,D2,CE,01,
1882379,00000401,false,Rx,0,8,1A,2A,64,95,4F,95,5F,95,
1882465,000007FF,false,Rx,0,8,03,31,09,A9,60,42,00,11,
1882550,000003A1,false,Rx,0,8,03,00,00,00,00,00,90,24,
1882636,000002C4,false,Rx,0,8,14,00,00,00,00,00,00,00,
1882721,00000401,false,Rx,0,8,1B,2A,4E,95,78,95,60,95,
1882807,00000204,false,Rx,0,8,01,00,00,FF,00,00,00,10,
1882924,0000012A,false,Rx,0,8,17,2A,50,95,77,95,47,95,
1883010,00000264,false,Rx,0,6,34,00,00,00,A0,00,00,00,
1883095,0000013D,false,Rx,0,6,05,00,AA,1A,FF,01,00,00,
1883183,00000224,false,Rx,0,8,04,08,00,40,19,01,10,08,
1883268,0000073D,false,Rx,0,8,04,00,00,00,00,00,00,00,
1883362,000002B4,false,Rx,0,5,5B,1D,27,1A,01,00,00,00,
1883447,00000401,false,Rx,0,8,1C,2A,3D,95,62,95,53,95,
1883533,00000118,false,Rx,0,8,5E,04,E1,20,00,00,40,00,
1883618,0000012A,false,Rx,0,8,18,2A,34,95,45,95,54,95,
1883703,00000401,false,Rx,0,8,1D,2A,5A,95,63,95,61,95,
1883789,0000012A,false,Rx,0,8,19,2A,50,95,4C,95,3F,95,
1883874,0000020A,false,Rx,0,6,36,65,2E,A2,18,21,00,00,
1883960,0000022A,false,Rx,0,4,00,00,09,17,00,00,00,00,
1884045,00000232,false,Rx,0,8,09,04,D3,09,CB,04,00,00,
1884130,000003B2,false,Rx,0,8,55,0E,83,04,0C,5C,BB,06,
1884218,00000401,false,Rx,0,8,1E,2A,61,95,4F,95,74,95,
1884303,00000712,false,Rx,0,8,05,00,00,00,00,00,00,00,
1884396,0000076C,false,Rx,0,8,70,85,81,61,D0,23,F8,08,
1884482,00000401,false,Rx,0,8,1F,2A,65,95,5D,95,4F,95,
1884567,0000012A,false,Rx,0,8,1A,2A,66,95,50,95,60,95,
1884653,0000012A,false,Rx,0,8,1E,2A,61,95,50,95,74,95,
1884738,0000013D,false,Rx,0,6,05,00,AA,1A,FF,01,00,00,
1884824,0000073D,false,Rx,0,8,06,03,E7,E3,B6,41,02,00,
1884909,0000012A,false,Rx,0,8,1F,2A,66,95,5E,95,50,95,
1884995,00000118,false,Rx,0,8,60,06,E1,20,00,00,40,00,
1885449,0000012A,false,Rx,0,8,20,00,00,00,00,00,00,00,
1885648,0000020A,false,Rx,0,6,36,65,2E,A2,18,21,00,00,
1885929,0000014A,false,Rx,0,8,05,00,00,00,00,00,00,00,
1886047,0000022A,false,Rx,0,4,00,00,09,17,00,00,00,00,
1886329,00000232,false,Rx,0,8,09,04,D7,09,CB,04,00,00,
1886537,000003B2,false,Rx,0,8,55,0E,82,04,0C,5C,BB,06,
1887640,0000076C,false,Rx,0,8,77,BB,00,57,2E,11,1E,00,
1888416,0000012A,false,Rx,0,8,21,00,00,00,00,00,00,00,
1890419,0000012A,false,Rx,0,8,22,00,00,00,00,00,00,00,
1891024,0000013D,false,Rx,0,6,05,00,AA,1A,FF,01,00,00,
1891224,0000073D,false,Rx,0,8,07,00,00,00,00,00,00,00,
1892082,00000339,false,Rx,0,8,40,41,00,00,00,01,40,0F,
1892944,00000118,false,Rx,0,8,61,07,E1,20,00,00,40,00,
1893143,00000545,false,Rx,0,8,44,00,07,81,9B,B5,A9,0F,
1893433,0000012A,false,Rx,0,8,23,00,00,00,00,00,00,00,
1894699,0000079D,false,Rx,0,8,09,02,67,35,35,AB,67,2C,
1895559,00000232,false,Rx,0,8,09,04,D6,09,CB,04,00,00,
1895757,0000020A,false,Rx,0,6,36,65,2E,A2,18,21,00,00,
1895875,0000022A,false,Rx,0,4,00,00,09,17,00,00,00,00,
1896159,000003B2,false,Rx,0,8,56,0E,81,04,0C,5C,BB,06,
1896447,0000012A,false,Rx,0,8,00,2A,88,95,8F,95,71,95,
1897711,0000076C,false,Rx,0,8,78,A4,00,4E,EE,10,1A,00,
1898490,000007BD,false,Rx,0,8,69,0D,93,F6,1C,D2,CE,01,
1899429,0000012A,false,Rx,0,8,01,2A,80,95,99,95,89,95,
1901020,0000013D,false,Rx,0,6,05,00,AA,1A,FF,01,00,00,
1901220,0000073D,false,Rx,0,8,68,00,02,00,00,00,00,00,
1901672,0000076A,false,Rx,0,8,00,10,0C,04,03,89,40,22,
1901789,0000024A,false,Rx,0,1,01,00,00,00,00,00,00,00,
1902069,00000682,false,Rx,0,8,00,00,00,40,04,17,50,2A,
1902272,000007AA,false,Rx,0,8,01,5C,0E,5A,0E,5C,0E,00,
1902479,0000012A,false,Rx,0,8,02,2A,85,95,7D,95,95,95,
1902760,00000118,false,Rx,0,8,62,08,E1,20,00,00,40,00,
1903040,0000078A,false,Rx,0,8,01,00,06,00,00,00,03,00,
1903817,000001F9,false,Rx,0,1,00,00,00,00,00,00,00,00,
1904423,0000012A,false,Rx,0,8,03,2A,6D,95,75,95,9C,95,
1905536,00000232,false,Rx,0,8,09,04,D7,09,CB,04,00,00,
1905735,0000020A,false,Rx,0,6,36,65,2E,A2,18,21,00,00,
1905934,0000014A,false,Rx,0,8,00,2A,08,07,EA,06,F4,06,
1906133,000003B2,false,Rx,0,8,55,0E,81,04,0C,5C,BB,06,
1906415,00000401,false,Rx,0,8,00,2A,87,95,8F,95,71,95,
1906622,0000074A,false,Rx,0,8,00,00,00,00,00,00,00,00,
1906821,0000022A,false,Rx,0,4,00,00,F9,16,00,00,00,00,
1907436,0000012A,false,Rx,0,8,04,2A,80,95,72,95,85,95,
1907716,0000076C,false,Rx,0,8,79,22,05,FD,05,00,00,00,
1907996,00000401,false,Rx,0,8,01,2A,80,95,99,95,89,95,
1909597,000003A1,false,Rx,0,8,48,6A,4C,95,00,20,A2,E6,
1910041,00000401,false,Rx,0,8,02,2A,85,95,7D,95,94,95,
1910411,0000012A,false,Rx,0,8,05,2A,83,95,65,95,71,95,
1911017,0000013D,false,Rx,0,6,05,00,AA,1A,FF,01,00,00,
1911218,0000073D,false,Rx,0,8,89,00,00,00,08,00,00,C0,
1912076,00000401,false,Rx,0,8,03,2A,6D,95,75,95,9B,95,
1912692,00000118,false,Rx,0,8,63,09,E1,20,00,00,40,00,
1913389,0000012A,false,Rx,0,8,06,2A,81,95,75,95,79,95,
1913994,00000401,false,Rx,0,8,04,2A,80,95,71,95,84,95,
1915433,0000012A,false,Rx,0,8,07,2A,64,95,74,95,54,95,
1915632,00000152,false,Rx,0,8,00,2A,D8,C3,FB,C2,61,C2,
1915913,00000172,false,Rx,0,8,00,2A,E3,8B,C8,8B,AF,8B,
1916113,0000020A,false,Rx,0,6,36,65,2E,A2,18,21,00,00,
1916231,0000022A,false,Rx,0,4,00,00,F9,16,00,00,00,00,
1916520,00000232,false,Rx,0,8,09,04,D9,09,CC,04,00,00,
1916719,000003B2,false,Rx,0,8,55,0E,81,04,0C,5C,BB,06,
1916918,00000401,false,Rx,0,8,05,2A,82,95,64,95,70,95,
1917202,00000712,false,Rx,0,8,00,2A,08,07,EA,06,F4,06,
1917734,0000076C,false,Rx,0,8,7A,42,1B,00,00,00,00,00,
1918014,00000401,false,Rx,0,8,06,2A,80,95,74,95,78,95,
1918459,0000012A,false,Rx,0,8,08,2A,43,95,52,95,60,95,
1920049,00000401,false,Rx,0,8,07,2A,64,95,72,95,54,95,
1920989,0000013D,false,Rx,0,6,05,00,AA,1A,FF,01,00,00,
1921273,0000073D,false,Rx,0,8,0A,00,00,00,00,00,00,00,
1921480,0000012A,false,Rx,0,8,09,2A,53,95,63,95,3F,95,
1922085,00000401,false,Rx,0,8,08,2A,42,95,50,95,5F,95,
1922703,00000118,false,Rx,0,8,64,0A,E1,20,00,00,40,00,
1924064,00000401,false,Rx,0,8,09,2A,53,95,61,95,3E,95,
1924442,0000012A,false,Rx,0,8,0A,2A,74,95,5C,95,64,95,
1925463,00000232,false,Rx,0,8,09,04,D8,09,CB,04,00,00,
1925661,0000020A,false,Rx,0,6,36,65,2E,A2,18,21,00,00,
1925948,0000014A,false,Rx,0,8,01,2A,26,07,12,07,EA,06,
1926068,0000022A,false,Rx,0,4,00,00,F9,16,00,00,00,00,
1926362,000003B2,false,Rx,0,8,55,0E,83,04,0C,5C,BB,06,
1926561,00000401,false,Rx,0,8,0A,2A,73,95,5B,95,63,95,
1926760,00000712,false,Rx,0,8,01,2A,30,07,12,07,EA,06,
1927378,00000221,false,Rx,0,8,20,41,01,00,54,51,91,BB,
1927577,0000012A,false,Rx,0,8,0B,2A,6C,95,7C,95,6B,95,
1927857,0000076C,false,Rx,0,8,7E,81,50,01,96,00,7C,21,
1928056,00000401,false,Rx,0,8,0B,2A,6B,95,7C,95,6A,95,
1957559,0000012A,false,Rx,0,8,0C,2A,4C,95,70,95,59,95,
1957677,00000401,false,Rx,0,8,0C,2A,4B,95,70,95,58,95,
1957763,0000013D,false,Rx,0,6,05,00,AA,1A,FF,01,00,00,
1957848,0000073D,false,Rx,0,8,F0,B6,A9,02,B8,00,00,00,
1957966,00000401,false,Rx,0,8,0D,2A,61,95,78,95,68,95,
1958052,0000012A,false,Rx,0,8,0D,2A,62,95,78,95,68,95,
1958174,00000118,false,Rx,0,8,65,0B,E1,20,00,00,40,00,
1958260,00000401,false,Rx,0,8,0E,2A,66,95,62,95,79,95,
1958352,0000012A,false,Rx,0,8,0E,2A,68,95,63,95,7A,95,
1958450,0000020A,false,Rx,0,6,36,65,2E,A2,18,21,00,00,
1958535,0000014A,false,Rx,0,8,02,0A,F4,06,26,07,FF,7F,
1958621,00000232,false,Rx,0,8,09,04,D5,09,CB,04,00,00,
1958706,000003B2,false,Rx,0,8,56,0E,86,04,0C,5C,BB,06,
1958792,00000401,false,Rx,0,8,0F,2A,73,95,76,95,6C,95,
1958877,00000712,false,Rx,0,8,02,0A,F4,06,26,07,00,00,
1958962,0000074A,false,Rx,0,8,01,00,00,00,00,00,00,00,
1959048,0000022A,false,Rx,0,4,00,00,F9,16,00,00,00,00,
1959169,0000079D,false,Rx,0,8,09,02,67,35,35,AB,67,2C,
1959254,0000076C,false,Rx,0,8,01,18,18,1F,21,1B,2B,11,
1959340,00000401,false,Rx,0,8,10,2A,76,95,82,95,70,95,
1959433,0000012A,false,Rx,0,8,0F,2A,74,95,76,95,6C,95,
1959519,00000272,false,Rx,0,8,AB,A1,39,24,AD,72,2E,07,
1959604,000002B2,false,Rx,0,5,1A,B3,00,00,00,00,00,00,
1959689,00000432,false,Rx,0,2,16,00,00,00,00,00,00,00,
1959774,00000401,false,Rx,0,8,11,2A,74,95,7A,95,7A,95,
1959893,0000012A,false,Rx,0,8,10,2A,77,95,83,95,70,95,
1959978,000007BD,false,Rx,0,8,69,0D,93,F6,1C,D2,CE,01,
1960096,0000041D,false,Rx,0,1,34,00,00,00,00,00,00,00,
1960183,0000021D,false,Rx,0,8,3D,00,00,0D,40,00,20,80,
1960301,0000043D,false,Rx,0,6,05,00,AA,1A,FF,01,00,00,
1960394,0000025D,false,Rx,0,8,DB,8C,01,B8,4A,C1,0A,E0,
1960479,0000013D,false,Rx,0,6,05,00,AA,1A,FF,01,00,00,
1960597,0000027D,false,Rx,0,8,55,03,00,56,F5,AA,58,8D,
1960683,00000401,false,Rx,0,8,12,2A,7C,95,6E,95,84,95,
1960801,0000029D,false,Rx,0,4,A9,06,82,13,00,00,00,00,
1960886,00000541,false,Rx,0,8,23,03,AB,06,00,00,00,00,
1961004,000002BD,false,Rx,0,4,DE,02,23,63,00,00,00,00,
1961089,00000118,false,Rx,0,8,66,0C,E1,20,00,00,40,00,
1961216,00000244,false,Rx,0,8,23,03,AB,06,AB,1A,AB,02,
1961305,0000012A,false,Rx,0,8,11,2A,72,95,79,95,78,95,
1961424,000002BE,false,Rx,0,8,F4,01,E2,04,F4,01,FF,01,
1961509,0000077D,false,Rx,0,3,3B,12,00,00,00,00,00,00,
1961627,0000025E,false,Rx,0,8,F4,01,E2,04,88,13,FF,01,
1961712,00000401,false,Rx,0,8,13,2A,66,95,66,95,8C,95,
1961798,00000214,false,Rx,0,8,09,01,00,80,A9,06,82,33,
1961883,00000545,false,Rx,0,8,03,19,64,32,19,00,B0,C5,
1961969,000002DE,false,Rx,0,8,E1,04,4A,0E,3F,00,00,00,
1962087,000007DD,false,Rx,0,2,1C,01,00,00,00,00,00,00,
1962177,0000073D,false,Rx,0,8,31,00,CC,09,00,00,D0,09,
1962262,00000152,false,Rx,0,8,01,2A,50,C3,A8,C3,8B,C3,
1962356,00000172,false,Rx,0,8,01,2A,B3,8B,DA,8B,F5,8B,
1962441,0000020A,false,Rx,0,6,36,65,2E,A2,18,21,00,00,
1962526,0000022A,false,Rx,0,4,00,00,F9,16,00,00,00,00,
1962612,0000012A,false,Rx,0,8,12,2A,7A,95,6C,95,83,95,
1962697,00000232,false,Rx,0,8,09,04,D5,09,CB,04,00,00,
1962783,000002D1,false,Rx,0,2,7F,01,00,00,00,00,00,00,
1962900,000003B2,false,Rx,0,8,56,0E,87,04,0C,5C,BB,06,
1962986,00000401,false,Rx,0,8,14,2A,67,95,60,95,6C,95,
1963071,00000712,false,Rx,0,8,03,00,00,00,00,00,00,00,
1963158,0000076C,false,Rx,0,8,02,03,04,03,07,01,02,00,
1963244,00000401,false,Rx,0,8,15,2A,74,95,44,95,5F,95,
1963329,0000012A,false,Rx,0,8,13,2A,65,95,65,95,8B,95,
1963449,00000401,false,Rx,0,8,16,2A,70,95,63,95,67,95,
1963566,0000013D,false,Rx,0,6,05,00,AA,1A,FF,01,00,00,
1963651,0000076C,false,Rx,0,8,03,59,59,59,59,65,70,00,
1963737,000007FF,false,Rx,0,8,04,53,56,18,5E,01,00,00,
1963822,00000401,false,Rx,0,8,1A,2A,66,95,50,95,60,95,
1963908,000003A1,false,Rx,0,8,03,00,00,00,00,00,B0,44,
1964026,000002C4,false,Rx,0,8,55,00,02,04,10,00,FF,00,
1964111,00000401,false,Rx,0,8,1B,2A,50,95,79,95,61,95,
1964199,00000204,false,Rx,0,8,01,00,00,FF,00,00,00,10,
1964284,0000012A,false,Rx,0,8,17,2A,50,95,76,95,45,95,
1964378,00000264,false,Rx,0,6,34,00,00,00,A0,00,00,00,
1964463,00000224,false,Rx,0,8,04,08,00,40,19,01,10,08,
1964549,0000013D,false,Rx,0,6,05,00,AA,1A,FF,01,00,00,
1964634,000002B4,false,Rx,0,5,5B,19,27,18,01,00,00,00,
1964719,0000073D,false,Rx,0,8,03,00,EF,18,00,00,00,00,
1964805,00000401,false,Rx,0,8,1C,2A,3F,95,63,95,54,95,
1964890,00000118,false,Rx,0,8,68,0E,E1,20,00,00,40,00,
1964976,0000012A,false,Rx,0,8,18,2A,34,95,44,95,54,95,
1965061,00000333,false,Rx,0,5,84,10,0B,06,03,00,00,00,
1965147,00000401,false,Rx,0,8,1D,2A,5C,95,64,95,62,95,
1965436,0000012A,false,Rx,0,8,19,2A,4E,95,4A,95,3D,95,
1965635,0000020A,false,Rx,0,6,36,65,2E,A2,18,21,00,00,
1965834,0000022A,false,Rx,0,4,00,00,F9,16,00,00,00,00,
1966033,00000232,false,Rx,0,8,09,04,D7,09,CC,04,00,00,
1966233,000003B2,false,Rx,0,8,56,0E,8A,04,0C,5C,BB,06,
1966523,00000401,false,Rx,0,8,1E,2A,62,95,50,95,75,95,
1966722,00000712,false,Rx,0,8,05,00,00,00,00,00,00,00,
1967663,0000076C,false,Rx,0,8,04,18,1B,04,05,00,04,00,
1968024,00000401,false,Rx,0,8,1F,2A,66,95,5F,95,50,95,
1968394,0000012A,false,Rx,0,8,1A,2A,64,95,4F,95,5F,95,
1970066,00000401,false,Rx,0,8,20,00,00,00,00,00,00,00,
1971009,0000013D,false,Rx,0,6,05,00,AA,1A,FF,01,00,00,
1971212,0000073D,false,Rx,0,8,04,00,00,00,00,00,00,00,
1971500,0000012A,false,Rx,0,8,1B,2A,4E,95,78,95,60,95,
1972023,00000401,false,Rx,0,8,21,00,00,00,00,00,00,00,
1972720,00000118,false,Rx,0,8,69,0F,E1,20,00,00,40,00,
1973822,00000279,false,Rx,0,4,42,CB,FC,00,00,00,00,00,
1974103,00000401,false,Rx,0,8,22,00,00,00,00,00,00,00,
1974473,0000012A,false,Rx,0,8,1C,2A,3D,95,62,95,53,95,
1975495,00000232,false,Rx,0,8,09,04,D5,09,CB,04,00,00,
1975776,00000152,false,Rx,0,8,02,0A,5C,C3,B4,C3,00,00,
1975974,00000172,false,Rx,0,8,02,0A,B9,8B,D8,8B,00,00,
1976177,0000020A,false,Rx,0,6,36,65,2E,A2,18,21,00,00,
1976464,0000014A,false,Rx,0,8,04,00,00,00,00,00,00,00,
1976664,000003B2,false,Rx,0,8,56,0E,87,04,0C,5C,BB,06,
1976943,00000401,false,Rx,0,8,23,00,00,00,00,00,00,00,
1977143,00000221,false,Rx,0,8,21,01,55,00,00,00,A0,3A,
1977431,0000074A,false,Rx,0,8,02,00,00,00,00,00,00,00,
1977631,0000012A,false,Rx,0,8,1D,2A,5A,95,63,95,61,95,
1977748,0000022A,false,Rx,0,4,00,00,F9,16,00,00,00,00,
1978029,0000076C,false,Rx,0,8,05,A4,64,36,45,DC,2E,00,
1978230,0000079D,false,Rx,0,8,09,02,67,35,35,AB,67,2C,
1979414,0000012A,false,Rx,0,8,1E,2A,61,95,4F,95,74,95,
1981012,0000013D,false,Rx,0,6,05,00,AA,1A,FF,01,00,00,
1981215,0000073D,false,Rx,0,8,05,E5,8F,E1,8F,03,00,00,
1981748,000007BD,false,Rx,0,8,69,0D,93,F6,1C,D2,CE,01,
1982445,0000012A,false,Rx,0,8,1F,2A,65,95,5D,95,4F,95,
1982969,00000118,false,Rx,0,8,5A,00,E1,20,00,00,40,00,
1985474,0000012A,false,Rx,0,8,20,00,00,00,00,00,00,00,
1985673,0000020A,false,Rx,0,6,36,65,2E,A2,18,21,00,00,
1985872,0000014A,false,Rx,0,8,05,00,00,00,00,00,00,00,
1986071,0000022A,false,Rx,0,4,00,00,F9,16,00,00,00,00,
1986272,00000232,false,Rx,0,8,09,04,D6,09,CA,04,00,00,
1986560,000003B2,false,Rx,0,8,56,0E,88,04,0C,5C,BB,06,
1987663,0000076C,false,Rx,0,8,0A,17,A0,00,64,00,80,00,
1988442,0000012A,false,Rx,0,8,21,00,00,00,00,00,00,00,
1990447,0000012A,false,Rx,0,8,22,00,00,00,00,00,00,00,
1990972,0000013D,false,Rx,0,6,05,00,AA,1A,FF,01,00,00,
1991254,0000073D,false,Rx,0,8,06,03,E8,E3,B6,46,02,00,
1992059,00000339,false,Rx,0,8,40,41,00,00,00,01,40,0F,
1992674,00000118,false,Rx,0,8,5B,01,E1,20,00,00,40,00,
1993372,00000545,false,Rx,0,8,44,00,EF,90,9B,B9,C9,2A,
1993653,0000012A,false,Rx,0,8,23,00,00,00,00,00,00,00,
1995497,00000232,false,Rx,0,8,09,04,D2,09,CB,04,00,00,
1995697,0000020A,false,Rx,0,6,36,65,2E,A2,18,21,00,00,
1995894,0000022A,false,Rx,0,4,00,00,F9,16,00,00,00,00,
1996094,000003B2,false,Rx,0,8,56,0E,87,04,0C,5C,BB,06,
1996466,0000012A,false,Rx,0,8,00,2A,88,95,90,95,71,95,
1997651,0000076C,false,Rx,0,8,0B,02,00,D0,20,FF,0F,32,
1999413,0000012A,false,Rx,0,8,01,2A,81,95,9A,95,8A,95,
2001004,0000013D,false,Rx,0,6,05,00,AA,1A,FF,01,00,00,
2001206,0000073D,false,Rx,0,8,07,00,00,00,00,00,00,00,
2001739,0000078A,false,Rx,0,8,01,00,07,00,00,00,A5,04,
2001856,0000024A,false,Rx,0,1,01,00,00,00,00,00,00,00,
2002136,00000682,false,Rx,0,8,00,00,00,40,04,17,60,3A,
2002337,000007AA,false,Rx,0,8,22,08,53,F9,AB,07,21,00,
2002545,0000012A,false,Rx,0,8,02,2A,85,95,7D,95,94,95,
2002906,00000118,false,Rx,0,8,5C,02,E1,20,00,00,40,00,
2003848,000001F9,false,Rx,0,1,00,00,00,00,00,00,00,00,
2004382,0000012A,false,Rx,0,8,03,2A,6D,95,75,95,9B,95,
2005486,00000232,false,Rx,0,8,09,04,CE,09,CB,04,00,00,
2005684,0000020A,false,Rx,0,6,36,65,2E,A2,18,21,00,00,
2005964,0000014A,false,Rx,0,8,00,2A,08,07,EA,06,F4,06,
2006165,000003B2,false,Rx,0,8,56,0E,87,04,0C,5C,BB,06,
2006452,00000401,false,Rx,0,8,00,2A,88,95,90,95,72,95,
2006652,0000074A,false,Rx,0,8,00,00,00,00,00,00,00,00,
2006851,0000022A,false,Rx,0,4,00,00,F9,16,00,00,00,00,
2007050,00000405,false,Rx,0,8,10,00,00,00,00,35,59,4A,
2007421,0000012A,false,Rx,0,8,04,2A,80,95,71,95,84,95,
2037282,0000076C,false,Rx,0,8,0C,00,00,00,20,00,00,00,
2037376,00000401,false,Rx,0,8,01,2A,81,95,9B,95,8B,95,
2037462,000003A1,false,Rx,0,8,48,6A,4C,95,00,1C,C2,02,
2037547,00000401,false,Rx,0,8,02,2A,86,95,7F,95,96,95,
2037665,0000012A,false,Rx,0,8,05,2A,82,95,64,95,70,95,
2037750,0000013D,false,Rx,0,6,05,00,AA,1A,FF,01,00,00,
2037836,0000073D,false,Rx,0,8,68,00,02,00,00,00,00,00,
2037921,00000401,false,Rx,0,8,03,2A,6F,95,76,95,9C,95,
2038040,00000118,false,Rx,0,8,5D,03,E1,20,00,00,40,00,
2038125,0000012A,false,Rx,0,8,06,2A,80,95,74,95,78,95,
2038212,00000401,false,Rx,0,8,04,2A,81,95,73,95,86,95,
2038298,0000012A,false,Rx,0,8,07,2A,64,95,72,95,54,95,
2038417,00000152,false,Rx,0,8,00,2A,D4,C3,3D,C3,94,C2,
2038503,00000172,false,Rx,0,8,00,2A,E5,8B,C8,8B,B1,8B,
2038588,0000020A,false,Rx,0,6,36,65,2E,A2,18,21,00,00,
2038674,0000022A,false,Rx,0,4,00,00,F9,16,00,00,00,00,
2038759,00000232,false,Rx,0,8,09,04,D3,09,CB,04,00,00,
2038844,000003B2,false,Rx,0,8,56,0E,85,04,0C,5C,BB,06,
2038930,00000401,false,Rx,0,8,05,2A,83,95,66,95,71,95,
2039015,00000712,false,Rx,0,8,00,2A,08,07,EA,06,F4,06,
2039101,0000076C,false,Rx,0,8,0D,04,32,8F,BB,28,00,00,
2039188,00000401,false,Rx,0,8,06,2A,81,95,75,95,79,95,
2039273,0000012A,false,Rx,0,8,08,2A,42,95,50,95,5F,95,
2039393,0000079D,false,Rx,0,8,09,02,67,35,35,AB,67,2C,
2039478,00000401,false,Rx,0,8,07,2A,65,95,73,95,54,95,
2039595,0000013D,false,Rx,0,6,05,00,AA,1A,FF,01,00,00,
2039712,0000073D,false,Rx,0,8,89,00,00,00,08,00,00,C0,
2039797,0000012A,false,Rx,0,8,09,2A,53,95,61,95,3E,95,
2039883,00000401,false,Rx,0,8,08,2A,43,95,52,95,60,95,
2039968,00000118,false,Rx,0,8,5E,04,E1,20,00,00,40,00,
2040054,000007BD,false,Rx,0,8,69,0D,93,F6,1C,D2,CE,01,
2040177,00000401,false,Rx,0,8,09,2A,54,95,63,95,40,95,
2040262,0000012A,false,Rx,0,8,0A,2A,73,95,5B,95,63,95,
2040381,00000232,false,Rx,0,8,09,04,D1,09,CA,04,00,00,
2040467,0000020A,false,Rx,0,6,36,65,2E,A2,18,21,00,00,
2040552,0000014A,false,Rx,0,8,01,2A,30,07,12,07,EA,06,
2040638,0000022A,false,Rx,0,4,00,00,F9,16,00,00,00,00,
2040723,000003B2,false,Rx,0,8,56,0E,85,04,0C,5C,BB,06,
2040808,00000401,false,Rx,0,8,0A,2A,74,95,5C,95,64,95,
2040894,00000712,false,Rx,0,8,01,2A,26,07,12,07,EA,06,
2041012,00000221,false,Rx,0,8,20,41,01,00,54,51,B1,DB,
2041097,0000012A,false,Rx,0,8,0B,2A,6B,95,7C,95,6A,95,
2041218,0000076C,false,Rx,0,8,0E,E3,AC,ED,BB,02,00,00,
2041335,00000401,false,Rx,0,8,0B,2A,6C,95,7C,95,6B,95,
2041428,0000012A,false,Rx,0,8,0C,2A,4B,95,70,95,58,95,
2041546,00000401,false,Rx,0,8,0C,2A,4C,95,71,95,5A,95,
2041631,0000013D,false,Rx,0,6,05,00,AA,1A,FF,01,00,00,
2041766,0000073D,false,Rx,0,8,0A,00,00,00,00,00,00,00,
2041856,00000401,false,Rx,0,8,0D,2A,62,95,78,95,68,95,
2041974,0000012A,false,Rx,0,8,0D,2A,61,95,78,95,68,95,
2042059,00000118,false,Rx,0,8,5F,05,E1,20,00,00,40,00,
2042146,00000401,false,Rx,0,8,0E,2A,68,95,64,95,7A,95,
2042264,0000012A,false,Rx,0,8,0E,2A,66,95,62,95,79,95,
2042381,0000020A,false,Rx,0,6,36,65,2E,A2,18,21,00,00,
2042466,0000014A,false,Rx,0,8,02,0A,F4,06,26,07,FF,7F,
2042592,00000232,false,Rx,0,8,09,04,D2,09,CB,04,00,00,
2042677,000003B2,false,Rx,0,8,56,0E,86,04,0C,5C,BB,06,
2042795,00000401,false,Rx,0,8,0F,2A,74,95,77,95,6D,95,
2042881,00000712,false,Rx,0,8,02,0A,FE,06,26,07,00,00,
2042999,0000074A,false,Rx,0,8,01,00,00,00,00,00,00,00,
2043084,0000022A,false,Rx,0,4,00,00,F9,16,00,00,00,00,
2043209,0000076C,false,Rx,0,8,14,1A,20,00,64,00,80,00,
2043294,00000401,false,Rx,0,8,10,2A,77,95,84,95,71,95,
2043387,0000012A,false,Rx,0,8,0F,2A,73,95,76,95,6C,95,
2043504,00000272,false,Rx,0,8,AB,A1,39,24,AD,72,2E,07,
2043590,000002B2,false,Rx,0,5,25,B3,00,00,00,00,00,00,
2043708,00000432,false,Rx,0,2,18,00,00,00,00,00,00,00,
2043825,00000401,false,Rx,0,8,11,2A,74,95,7B,95,7A,95,
2043910,0000012A,false,Rx,0,8,10,2A,76,95,82,95,70,95,
2043996,0000075D,false,Rx,0,8,01,63,0D,63,00,00,00,00,
2044114,0000021D,false,Rx,0,8,3D,00,00,0D,40,00,20,80,
2044201,0000041D,false,Rx,0,1,34,00,00,00,00,00,00,00,
2044319,0000025D,false,Rx,0,8,DB,8C,01,B8,4A,C1,0A,E0,
2044412,0000013D,false,Rx,0,6,05,00,AA,1A,FF,01,00,00,
2044530,0000027D,false,Rx,0,8,55,03,00,56,F5,AA,58,8D,
2044616,00000401,false,Rx,0,8,12,2A,7C,95,6F,95,84,95,
2044701,0000029D,false,Rx,0,4,AA,06,82,13,00,00,00,00,
2044818,0000043D,false,Rx,0,6,05,00,AA,1A,FF,01,00,00,
2044904,000002BD,false,Rx,0,4,DE,02,23,63,00,00,00,00,
2045022,00000541,false,Rx,0,8,23,03,AB,06,00,00,00,00,
2045139,00000118,false,Rx,0,8,60,06,E1,20,00,00,40,00,
2045225,0000012A,false,Rx,0,8,11,2A,74,95,7A,95,7A,95,
2045311,00000244,false,Rx,0,8,23,03,AB,06,AB,1A,AB,02,
2045436,0000077D,false,Rx,0,3,3B,12,00,00,00,00,00,00,
2045521,000002BE,false,Rx,0,8,F4,01,E2,04,F4,01,FF,01,
2045639,00000401,false,Rx,0,8,13,2A,68,95,67,95,8C,95,
2045725,0000025E,false,Rx,0,8,F4,01,E2,04,88,13,FF,01,
2045843,00000545,false,Rx,0,8,03,19,64,32,19,00,D0,E5,
2045928,00000214,false,Rx,0,8,09,01,00,80,AA,06,82,33,
2046046,000007DD,false,Rx,0,2,1C,01,00,00,00,00,00,00,
2046132,000002DE,false,Rx,0,8,E2,04,4A,0E,3F,00,00,00,
2046253,00000152,false,Rx,0,8,01,2A,54,C3,E7,C3,AE,C3,
2046338,00000172,false,Rx,0,8,01,2A,B3,8B,DA,8B,F5,8B,
2046464,0000020A,false,Rx,0,6,36,65,2E,A2,18,21,00,00,
2046550,0000022A,false,Rx,0,4,00,00,F9,16,00,00,00,00,
2046667,00000232,false,Rx,0,8,09,04,D0,09,CC,04,00,00,
2046784,0000012A,false,Rx,0,8,12,2A,7C,95,6E,95,84,95,
2046869,000002D1,false,Rx,0,2,7F,01,00,00,00,00,00,00,
2047068,000003B2,false,Rx,0,8,56,0E,89,04,0C,5C,BB,06,
2047272,00000401,false,Rx,0,8,14,2A,68,95,60,95,6D,95,
2047480,00000712,false,Rx,0,8,03,00,00,00,00,00,00,00,
2047760,0000073D,false,Rx,0,8,F0,B6,A9,02,B8,00,00,00,
2047958,0000076C,false,Rx,0,8,15,01,00,D0,20,00,00,32,
2048240,00000401,false,Rx,0,8,15,2A,74,95,44,95,5F,95,
2049423,0000012A,false,Rx,0,8,13,2A,66,95,66,95,8C,95,
2050036,00000401,false,Rx,0,8,16,2A,71,95,64,95,68,95,
2050976,0000013D,false,Rx,0,6,05,00,AA,1A,FF,01,00,00,
2051257,0000073D,false,Rx,0,8,31,00,CC,09,00,00,D0,09,
2052033,00000401,false,Rx,0,8,17,2A,51,95,78,95,47,95,
2052398,0000012A,false,Rx,0,8,14,2A,67,95,60,95,6C,95,
2052922,00000118,false,Rx,0,8,61,07,E1,20,00,00,40,00,
2054028,00000401,false,Rx,0,8,18,2A,35,95,46,95,55,95,
2054393,0000012A,false,Rx,0,8,15,2A,74,95,44,95,5F,95,
2055495,00000232,false,Rx,0,8,09,04,D2,09,CB,04,00,00,
2055694,0000020A,false,Rx,0,6,36,65,2E,A2,18,21,00,00,
2055975,0000014A,false,Rx,0,8,03,00,00,00,00,00,00,00,
2056093,0000022A,false,Rx,0,4,00,00,F9,16,00,00,00,00,
2056383,000003B2,false,Rx,0,8,56,0E,86,04,0C,5C,BB,06,
2056583,00000401,false,Rx,0,8,19,2A,50,95,4C,95,40,95,
2056782,00000712,false,Rx,0,8,04,00,00,00,00,00,00,00,
2057391,0000012A,false,Rx,0,8,16,2A,70,95,63,95,67,95,
2057672,000007FF,false,Rx,0,8,01,59,45,49,02,04,16,00,
2057871,0000076C,false,Rx,0,8,16,00,00,00,20,00,40,00,
2058155,00000401,false,Rx,0,8,1A,2A,67,95,51,95,60,95,
2059434,000003A1,false,Rx,0,8,03,00,00,00,00,00,D0,64,
2059723,0000079D,false,Rx,0,8,09,02,67,35,35,AB,67,2C,
2060004,000002C4,false,Rx,0,8,16,C3,9A,00,00,00,00,01,
2060206,00000401,false,Rx,0,8,1B,2A,50,95,7A,95,63,95,
2060413,0000012A,false,Rx,0,8,17,2A,50,95,77,95,47,95,
2060694,00000204,false,Rx,0,8,01,00,00,FF,00,00,00,10,
2060893,00000264,false,Rx,0,6,34,00,00,00,A0,00,00,00,
2061092,0000013D,false,Rx,0,6,05,00,AA,1A,FF,01,00,00,
2061399,00000224,false,Rx,0,8,04,08,00,40,19,01,10,08,
2061598,0000073D,false,Rx,0,8,32,59,00,00,00,00,00,00,
2061798,000002B4,false,Rx,0,5,5C,19,27,17,01,00,00,00,
2062078,00000401,false,Rx,0,8,1C,2A,40,95,64,95,54,95,
2062938,00000118,false,Rx,0,8,62,08,E1,20,00,00,40,00,
2063390,0000033A,false,Rx,0,8,48,00,48,00,DB,00,21,21,
2063588,0000012A,false,Rx,0,8,18,2A,34,95,45,95,54,95,
2063869,000007BD,false,Rx,0,8,69,0D,93,F6,1C,D2,CE,01,
2064067,00000401,false,Rx,0,8,1D,2A,5C,95,65,95,63,95,
2065428,0000012A,false,Rx,0,8,19,2A,50,95,4C,95,3F,95,
2065628,0000020A,false,Rx,0,6,36,65,2E,A2,18,21,00,00,
2065827,0000022A,false,Rx,0,4,00,00,F9,16,00,00,00,00,
2066025,00000232,false,Rx,0,8,09,04,D4,09,CB,04,00,00,
2066226,000003B2,false,Rx,0,8,56,0E,86,04,0C,5C,BB,06,
2066515,00000401,false,Rx,0,8,1E,2A,63,95,50,95,76,95,
2066714,00000712,false,Rx,0,8,05,00,00,00,00,00,00,00,
2067655,0000076C,false,Rx,0,8,17,04,32,8F,BB,28,00,00,
2068017,00000401,false,Rx,0,8,1F,2A,67,95,60,95,50,95,
2068298,0000012A,false,Rx,0,8,1A,2A,66,95,50,95,60,95,
2070059,00000401,false,Rx,0,8,20,00,00,00,00,00,00,00,
2070998,0000013D,false,Rx,0,6,05,00,AA,1A,FF,01,00,00,
2071280,0000073D,false,Rx,0,8,03,00,EF,18,00,00,00,00,
2071488,0000012A,false,Rx,0,8,1B,2A,50,95,79,95,61,95,
2072094,00000401,false,Rx,0,8,21,00,00,00,00,00,00,00,
2072711,00000118,false,Rx,0,8,63,09,E1,20,00,00,40,00,
2073894,00000279,false,Rx,0,4,54,CC,0C,01,00,00,00,00,
2074093,00000401,false,Rx,0,8,22,00,00,00,00,00,00,00,
2074549,0000012A,false,Rx,0,8,1C,2A,3F,95,63,95,54,95,
2075489,00000232,false,Rx,0,8,09,04,D5,09,CA,04,00,00,
2075770,00000152,false,Rx,0,8,02,0A,54,C3,95,C3,00,00,
2075969,00000172,false,Rx,0,8,02,0A,BA,8B,D9,8B,00,00,
2076170,0000020A,false,Rx,0,6,36,65,2E,A2,18,21,00,00,
2076456,0000014A,false,Rx,0,8,04,00,00,00,00,00,00,00,
2076655,000003B2,false,Rx,0,8,56,0E,83,04,0C,5C,BB,06,
2076854,00000401,false,Rx,0,8,23,00,00,00,00,00,00,00,
2077135,0000074A,false,Rx,0,8,02,00,00,00,00,00,00,00,
2077335,0000022A,false,Rx,0,4,00,00,F9,16,00,00,00,00,
2077542,0000012A,false,Rx,0,8,1D,2A,5C,95,64,95,62,95,
2077741,00000221,false,Rx,0,8,21,01,55,00,00,00,C0,5A,
2078021,0000076C,false,Rx,0,8,18,E1,AC,EF,BB,02,00,00,
2079541,0000012A,false,Rx,0,8,1E,2A,62,95,50,95,75,95,
2081051,0000013D,false,Rx,0,6,05,00,AA,1A,FF,01,00,00,
2081251,0000073D,false,Rx,0,8,04,00,00,00,00,00,00,00,
2082274,0000012A,false,Rx,0,8,1F,2A,66,95,5F,95,50,95,
2082969,00000118,false,Rx,0,8,64,0A,E1,20,00,00,40,00,
2085473,00000232,false,Rx,0,8,09,04,D6,09,CB,04,00,00,
2085671,0000020A,false,Rx,0,6,36,65,2E,A2,18,21,00,00,
2085952,0000012A,false,Rx,0,8,20,00,00,00,00,00,00,00,
2086154,0000014A,false,Rx,0,8,05,00,00,00,00,00,00,00,
2086360,0000022A,false,Rx,0,4,00,00,F9,16,00,00,00,00,
2086559,000003B2,false,Rx,0,8,56,0E,89,04,0C,5C,BB,06,
2121493,0000076C,false,Rx,0,8,9E,14,20,00,64,00,40,00,
2121580,0000012A,false,Rx,0,8,21,00,00,00,00,00,00,00,
2121665,0000012A,false,Rx,0,8,22,00,00,00,00,00,00,00,
2121751,0000013D,false,Rx,0,6,05,00,AA,1A,FF,01,00,00,
2121836,0000073D,false,Rx,0,8,05,D8,8F,E1,8F,03,00,00,
2121922,00000339,false,Rx,0,8,40,41,00,00,00,01,40,0F,
2122040,00000118,false,Rx,0,8,65,0B,E1,20,00,00,40,00,
2122125,00000545,false,Rx,0,8,4E,00,F8,C0,9B,B8,E9,8C,
2122213,0000012A,false,Rx,0,8,23,00,00,00,00,00,00,00,
2122298,00000232,false,Rx,0,8,09,04,D2,09,CC,04,00,00,
2122392,0000020A,false,Rx,0,6,36,65,2E,A2,18,21,00,00,
2122477,0000022A,false,Rx,0,4,00,00,F9,16,00,00,00,00,
2122563,000003B2,false,Rx,0,8,55,0E,89,04,0C,5C,BB,06,
2122681,0000012A,false,Rx,0,8,00,2A,87,95,8F,95,71,95,
2122766,0000076C,false,Rx,0,8,1F,03,00,D0,20,00,00,32,
2122852,0000012A,false,Rx,0,8,01,2A,80,95,99,95,89,95,
2122937,0000079D,false,Rx,0,8,09,02,67,35,35,AB,67,2C,
2123023,0000013D,false,Rx,0,6,05,00,AA,1A,FF,01,00,00,
2123108,0000073D,false,Rx,0,8,16,03,E8,43,B7,4D,02,00,
2123195,0000078A,false,Rx,0,8,01,00,08,00,00,00,50,00,
2123281,0000024A,false,Rx,0,1,01,00,00,00,00,00,00,00,
2123374,00000682,false,Rx,0,8,00,00,00,40,04,17,70,4A,
2123460,0000012A,false,Rx,0,8,02,2A,85,95,7D,95,94,95,
2123545,00000118,false,Rx,0,8,66,0C,E1,20,00,00,40,00,
2123631,000001F9,false,Rx,0,1,00,00,00,00,00,00,00,00,
2123716,0000012A,false,Rx,0,8,03,2A,6D,95,75,95,9B,95,
2123801,000007BD,false,Rx,0,8,69,0D,93,F6,1C,D2,CE,01,
2123887,0000014A,false,Rx,0,8,00,2A,08,07,EA,06,F4,06,
2124004,0000020A,false,Rx,0,6,36,65,2E,A2,18,21,00,00,
2124090,00000232,false,Rx,0,8,09,04,D6,09,CB,04,00,00,
2124177,000003B2,false,Rx,0,8,56,0E,86,04,0C,5C,BB,06,
2124262,00000401,false,Rx,0,8,00,2A,88,95,90,95,73,95,
2124381,0000074A,false,Rx,0,8,00,00,00,00,00,00,00,00,
2124467,0000022A,false,Rx,0,4,00,00,09,17,00,00,00,00,
2124552,0000012A,false,Rx,0,8,04,2A,80,95,71,95,84,95,
2124638,0000076C,false,Rx,0,8,20,00,00,00,30,00,40,00,
2124723,00000401,false,Rx,0,8,01,2A,82,95,9C,95,8C,95,
2124809,000003A1,false,Rx,0,8,48,6A,4C,95,00,20,E2,26,
2124894,00000401,false,Rx,0,8,02,2A,87,95,80,95,97,95,
2124980,0000012A,false,Rx,0,8,05,2A,82,95,64,95,70,95,
2125065,0000013D,false,Rx,0,6,05,00,AA,1A,FF,01,00,00,
2125152,0000073D,false,Rx,0,8,07,00,00,00,00,00,00,00,
2125237,00000401,false,Rx,0,8,03,2A,6F,95,77,95,9C,95,
2125323,00000118,false,Rx,0,8,67,0D,E1,20,00,00,40,00,
2125417,0000012A,false,Rx,0,8,06,2A,81,95,75,95,79,95,
2125534,00000401,false,Rx,0,8,04,2A,82,95,73,95,87,95,
2125652,0000012A,false,Rx,0,8,07,2A,65,95,73,95,54,95,
2125737,00000152,false,Rx,0,8,00,2A,AB,C3,34,C3,34,C2,
2125823,00000172,false,Rx,0,8,00,2A,E5,8B,CA,8B,B1,8B,
2125940,0000020A,false,Rx,0,6,36,65,2E,A2,18,21,00,00,
2126056,0000022A,false,Rx,0,4,00,00,09,17,00,00,00,00,
2126142,00000232,false,Rx,0,8,09,04,D5,09,CC,04,00,00,
2126228,000003B2,false,Rx,0,8,56,0E,85,04,0C,5C,BB,06,
2126354,00000401,false,Rx,0,8,05,2A,84,95,66,95,72,95,
2126440,00000712,false,Rx,0,8,00,2A,08,07,EA,06,F4,06,
2126557,0000076C,false,Rx,0,8,21,04,32,8F,BB,28,00,00,
2126643,00000401,false,Rx,0,8,06,2A,82,95,76,95,7A,95,
2126759,0000012A,false,Rx,0,8,08,2A,43,95,52,95,60,95,
2126845,00000401,false,Rx,0,8,07,2A,66,95,74,95,55,95,
2126930,0000013D,false,Rx,0,6,05,00,AA,1A,FF,01,00,00,
2127016,0000073D,false,Rx,0,8,68,00,02,00,00,00,00,00,
2127134,0000012A,false,Rx,0,8,09,2A,54,95,63,95,40,95,
2127221,00000401,false,Rx,0,8,08,2A,44,95,53,95,61,95,
2127307,00000118,false,Rx,0,8,68,0E,E1,20,00,00,40,00,
2127426,00000401,false,Rx,0,8,09,2A,54,95,64,95,40,95,
2127512,0000012A,false,Rx,0,8,0A,2A,74,95,5C,95,64,95,
2127629,00000232,false,Rx,0,8,09,04,D4,09,CB,04,00,00,
2127714,0000020A,false,Rx,0,6,36,65,2E,A2,18,21,00,00,
2127800,0000014A,false,Rx,0,8,01,2A,26,07,12,07,EA,06,
2127885,0000022A,false,Rx,0,4,00,00,09,17,00,00,00,00,
2128002,000003B2,false,Rx,0,8,56,0E,85,04,0C,5C,BB,06,
2128088,00000401,false,Rx,0,8,0A,2A,74,95,5D,95,64,95,
2128177,00000712,false,Rx,0,8,01,2A,26,07,12,07,EA,06,
2128262,00000221,false,Rx,0,8,20,41,01,00,54,51,D1,FB,
2128355,0000012A,false,Rx,0,8,0B,2A,6C,95,7C,95,6B,95,
2128441,0000076C,false,Rx,0,8,22,E2,AC,EF,BB,00,00,00,
2128526,00000401,false,Rx,0,8,0B,2A,6C,95,7C,95,6C,95,
2129407,0000012A,false,Rx,0,8,0C,2A,4C,95,71,95,5A,95,
2130012,00000401,false,Rx,0,8,0C,2A,4D,95,72,95,5A,95,
2131049,0000013D,false,Rx,0,6,05,00,AA,1A,FF,01,00,00,
2131249,0000073D,false,Rx,0,8,89,00,00,00,08,00,00,C0,
2132024,00000401,false,Rx,0,8,0D,2A,63,95,79,95,69,95,
2132395,0000012A,false,Rx,0,8,0D,2A,62,95,78,95,68,95,
2132676,00000118,false,Rx,0,8,69,0F,E1,20,00,00,40,00,
2134023,00000401,false,Rx,0,8,0E,2A,68,95,64,95,7B,95,
2135460,0000012A,false,Rx,0,8,0E,2A,68,95,64,95,7A,95,
2135659,0000014A,false,Rx,0,8,02,0A,FE,06,26,07,FF,7F,
2135859,0000020A,false,Rx,0,6,36,65,2E,A2,18,21,00,00,
2136139,00000232,false,Rx,0,8,09,04,D5,09,CB,04,00,00,
2136339,000003B2,false,Rx,0,8,56,0E,86,04,0C,5C,BB,06,
2136546,00000401,false,Rx,0,8,0F,2A,74,95,78,95,6D,95,
2136827,00000712,false,Rx,0,8,02,0A,F4,06,26,07,00,00,
2137026,0000074A,false,Rx,0,8,01,00,00,00,00,00,00,00,
2137228,0000022A,false,Rx,0,4,00,00,09,17,00,00,00,00,
2137761,0000076C,false,Rx,0,8,33,00,00,00,00,44,20,84,
2138042,00000401,false,Rx,0,8,10,2A,78,95,84,95,72,95,
2138323,00000272,false,Rx,0,8,AB,A1,39,24,AD,72,2E,07,
2138613,0000012A,false,Rx,0,8,0F,2A,74,95,77,95,6D,95,
2138812,000002B2,false,Rx,0,5,24,B3,00,00,00,00,00,00,
2138929,00000432,false,Rx,0,2,1A,00,00,00,00,00,00,00,
2140033,00000401,false,Rx,0,8,11,2A,74,95,7B,95,7B,95,
2140403,0000012A,false,Rx,0,8,10,2A,77,95,84,95,71,95,
2140845,0000041D,false,Rx,0,1,34,00,00,00,00,00,00,00,
2141126,0000021D,false,Rx,0,8,3D,00,00,0D,40,00,20,80,
2141327,0000043D,false,Rx,0,6,05,00,AA,1A,FF,01,00,00,
2141534,0000025D,false,Rx,0,8,DB,8C,01,B8,4A,C1,0A,E0,
2141733,0000013D,false,Rx,0,6,05,00,AA,1A,FF,01,00,00,
2142013,0000027D,false,Rx,0,8,55,03,00,56,F5,AA,58,8D,
2142218,00000401,false,Rx,0,8,12,2A,7C,95,6F,95,84,95,
2142335,0000029D,false,Rx,0,4,AA,06,82,13,00,00,00,00,
2142624,00000541,false,Rx,0,8,23,03,AB,06,00,00,00,00,
2142741,000002BD,false,Rx,0,4,DE,02,23,63,00,00,00,00,
2142940,0000077D,false,Rx,0,3,3B,12,00,00,00,00,00,00,
2143139,00000244,false,Rx,0,8,23,03,AB,06,AB,1A,AB,02,
2143427,00000118,false,Rx,0,8,5A,00,E1,20,00,00,40,00,
2143626,0000012A,false,Rx,0,8,11,2A,74,95,7B,95,7A,95,
2143826,000002BE,false,Rx,0,8,F4,01,E2,04,F4,01,FF,01,
2144106,00000401,false,Rx,0,8,13,2A,67,95,67,95,8D,95,
2144307,0000025E,false,Rx,0,8,F4,01,E2,04,88,13,FF,01,
2144514,00000545,false,Rx,0,8,03,19,64,32,19,00,F0,05,
2144795,00000214,false,Rx,0,8,09,01,00,80,AA,06,82,33,
2144912,000007DD,false,Rx,0,2,1C,01,00,00,00,00,00,00,
2145194,000002DE,false,Rx,0,8,E2,04,4A,0E,3F,00,00,00,
2145401,0000073D,false,Rx,0,8,0A,00,00,00,00,00,00,00,
2145600,00000152,false,Rx,0,8,01,2A,4C,C3,AE,C3,A6,C3,
2145880,00000172,false,Rx,0,8,01,2A,B5,8B,DA,8B,F6,8B,
2146080,0000020A,false,Rx,0,6,36,65,2E,A2,18,21,00,00,
2146198,0000022A,false,Rx,0,4,00,00,09,17,00,00,00,00,
2146487,0000012A,false,Rx,0,8,12,2A,7C,95,6F,95,84,95,
2146687,00000232,false,Rx,0,8,09,04,D1,09,CA,04,00,00,
2146804,000002D1,false,Rx,0,2,7F,01,00,00,00,00,00,00,
2147084,000003B2,false,Rx,0,8,56,0E,87,04,0C,5C,BB,06,
2147285,00000401,false,Rx,0,8,14,2A,68,95,61,95,6E,95,
2147492,00000712,false,Rx,0,8,03,00,00,00,00,00,00,00,
2147773,0000076C,false,Rx,0,8,34,00,00,00,00,00,00,00,
2147972,0000079D,false,Rx,0,8,09,02,67,35,35,AB,67,2C,
2148254,00000401,false,Rx,0,8,15,2A,74,95,44,95,5F,95,
2148787,000007BD,false,Rx,0,8,69,0D,93,F6,1C,D2,CE,01,
2149402,0000012A,false,Rx,0,8,13,2A,68,95,67,95,8C,95,
2150008,00000401,false,Rx,0,8,16,2A,71,95,64,95,68,95,
2151030,0000013D,false,Rx,0,6,05,00,AA,1A,FF,01,00,00,
2151231,0000073D,false,Rx,0,8,E0,B6,A9,02,B8,00,00,00,
2152088,00000401,false,Rx,0,8,17,2A,51,95,78,95,48,95,
2152378,0000012A,false,Rx,0,8,14,2A,68,95,60,95,6D,95,
2152903,00000118,false,Rx,0,8,5B,01,E1,20,00,00,40,00,
2154006,00000401,false,Rx,0,8,18,2A,35,95,46,95,55,95,
2154454,0000012A,false,Rx,0,8,15,2A,74,95,44,95,5F,95,
2155476,00000232,false,Rx,0,8,09,04,D2,09,CA,04,00,00,
2155674,0000020A,false,Rx,0,6,36,65,2E,A2,18,21,00,00,
2155954,0000014A,false,Rx,0,8,03,00,00,00,00,00,00,00,
2156071,0000022A,false,Rx,0,4,00,00,09,17,00,00,00,00,
2156361,000003B2,false,Rx,0,8,55,0E,85,04,0C,5C,BB,06,
2156561,00000401,false,Rx,0,8,19,2A,50,95,4C,95,40,95,
2156842,00000712,false,Rx,0,8,04,00,00,00,00,00,00,00,
2157377,0000012A,false,Rx,0,8,16,2A,71,95,64,95,68,95,
2157657,000007FF,false,Rx,0,8,02,46,96,2C,DC,51,95,28,
2157856,0000076C,false,Rx,0,8,35,2A,09,01,00,00,00,00,
2158137,00000401,false,Rx,0,8,1A,2A,67,95,51,95,60,95,
2159169,000003A1,false,Rx,0,8,03,00,00,00,00,00,F0,84,
2159864,000002C4,false,Rx,0,8,17,80,00,12,04,70,20,00,
2160064,00000401,false,Rx,0,8,1B,2A,50,95,7A,95,63,95,
2160354,00000204,false,Rx,0,8,01,00,00,FF,00,00,00,10,
2160554,0000012A,false,Rx,0,8,17,2A,51,95,78,95,47,95,
2160752,00000264,false,Rx,0,6,34,00,00,00,A0,00,00,00,
2161033,00000224,false,Rx,0,8,04,08,00,40,19,01,10,08,
2161249,0000013D,false,Rx,0,6,05,00,AA,1A,FF,01,00,00,
2161397,000002B4,false,Rx,0,5,5B,19,27,15,01,00,00,00,
2161610,0000073D,false,Rx,0,8,31,00,CC,F9,FF,00,D0,09,
2162053,00000401,false,Rx,0,8,1C,2A,40,95,64,95,54,95,
2162913,00000118,false,Rx,0,8,5C,02,E1,20,00,00,40,00,
2163278,00000284,false,Rx,0,5,10,00,00,00,00,00,00,00,
2163484,0000012A,false,Rx,0,8,18,2A,35,95,46,95,55,95,
2164008,00000401,false,Rx,0,8,1D,2A,5C,95,65,95,64,95,
2165448,0000012A,false,Rx,0,8,19,2A,50,95,4C,95,40,95,
2165646,0000020A,false,Rx,0,6,36,65,2E,A2,18,21,00,00,
2165764,0000022A,false,Rx,0,4,00,00,09,17,00,00,00,00,
2166044,00000232,false,Rx,0,8,09,04,D0,09,CB,04,00,00,
2166245,000003B2,false,Rx,0,8,55,0E,85,04,0C,5C,BB,06,
2166453,00000401,false,Rx,0,8,1E,2A,63,95,50,95,76,95,
2166734,00000712,false,Rx,0,8,05,00,00,00,00,00,00,00,
2167673,0000076C,false,Rx,0,8,64,D5,06,C9,A9,56,BA,0C,
2168035,00000401,false,Rx,0,8,1F,2A,67,95,60,95,50,95,
2168400,0000012A,false,Rx,0,8,1A,2A,67,95,51,95,60,95,
2170072,00000401,false,Rx,0,8,20,00,00,00,00,00,00,00,
2171014,0000013D,false,Rx,0,6,05,00,AA,1A,FF,01,00,00,
2171297,0000073D,false,Rx,0,8,32,59,00,00,00,00,00,00,
2206086,0000012A,false,Rx,0,8,1B,2A,50,95,7A,95,63,95,
2206206,00000401,false,Rx,0,8,21,00,00,00,00,00,00,00,
2206291,00000118,false,Rx,0,8,5D,03,E1,20,00,00,40,00,
2206411,00000279,false,Rx,0,4,55,CD,0C,01,00,00,00,00,
2206496,00000401,false,Rx,0,8,22,00,00,00,00,00,00,00,
2206614,0000012A,false,Rx,0,8,1C,2A,40,95,64,95,54,95,
2206699,0000014A,false,Rx,0,8,04,00,00,00,00,00,00,00,
2206817,00000152,false,Rx,0,8,02,0A,60,C3,B1,C3,00,00,
2206902,00000172,false,Rx,0,8,02,0A,BA,8B,D9,8B,00,00,
2206988,0000020A,false,Rx,0,6,36,65,2E,A2,18,21,00,00,
2207073,00000232,false,Rx,0,8,09,04,D0,09,CB,04,00,00,
2207161,000003B2,false,Rx,0,8,55,0E,82,04,0C,5C,BB,06,
2207247,00000401,false,Rx,0,8,23,00,00,00,00,00,00,00,
2207372,0000074A,false,Rx,0,8,02,00,00,00,00,00,00,00,
2207458,00000221,false,Rx,0,8,21,01,55,00,00,00,E0,7A,
2207543,0000012A,false,Rx,0,8,1D,2A,5C,95,65,95,63,95,
2207661,0000022A,false,Rx,0,4,00,00,09,17,00,00,00,00,
2207746,0000076C,false,Rx,0,8,66,7C,A4,0F,00,00,00,00,
2207831,0000012A,false,Rx,0,8,1E,2A,63,95,50,95,76,95,
2207917,0000013D,false,Rx,0,6,05,00,AA,1A,FF,01,00,00,
2208035,0000073D,false,Rx,0,8,03,00,EF,18,00,00,00,00,
2208121,0000012A,false,Rx,0,8,1F,2A,67,95,60,95,50,95,
2208208,0000079D,false,Rx,0,8,09,02,67,35,35,AB,67,2C,
2208293,00000118,false,Rx,0,8,5E,04,E1,20,00,00,40,00,
2208387,0000012A,false,Rx,0,8,20,00,00,00,00,00,00,00,
2208472,0000020A,false,Rx,0,6,36,65,2E,A2,18,21,00,00,
2208558,0000014A,false,Rx,0,8,05,00,00,00,00,00,00,00,
2208643,0000022A,false,Rx,0,4,00,00,09,17,00,00,00,00,
2208728,00000232,false,Rx,0,8,09,04,D3,09,CC,04,00,00,
2208814,000003B2,false,Rx,0,8,55,0E,84,04,0C,5C,BB,06,
2208899,000007BD,false,Rx,0,8,69,0D,93,F6,1C,D2,CE,01,
2208985,0000076C,false,Rx,0,8,67,7A,0B,A4,2E,97,2E,00,
2209070,0000012A,false,Rx,0,8,21,00,00,00,00,00,00,00,
2209158,0000012A,false,Rx,0,8,22,00,00,00,00,00,00,00,
2209244,0000013D,false,Rx,0,6,05,00,AA,1A,FF,01,00,00,
2209369,0000073D,false,Rx,0,8,04,00,00,00,00,00,00,00,
2209454,00000339,false,Rx,0,8,40,41,00,00,00,01,40,0F,
2209540,00000118,false,Rx,0,8,5F,05,E1,20,00,00,40,00,
2209658,00000545,false,Rx,0,8,44,00,FD,70,9B,B3,09,52,
2209743,0000012A,false,Rx,0,8,23,00,00,00,00,00,00,00,
2209861,00000232,false,Rx,0,8,09,04,D0,09,CB,04,00,00,
2209947,0000020A,false,Rx,0,6,36,65,2E,A2,18,21,00,00,
2210065,0000022A,false,Rx,0,4,00,00,09,17,00,00,00,00,
2210152,000003B2,false,Rx,0,8,56,0E,86,04,0C,5C,BB,06,
2210237,0000012A,false,Rx,0,8,00,2A,88,95,90,95,72,95,
2210323,0000076C,false,Rx,0,8,68,8C,FF,B3,01,3F,02,00,
2210441,0000012A,false,Rx,0,8,01,2A,81,95,9B,95,8B,95,
2210527,0000013D,false,Rx,0,6,05,00,AA,1A,FF,01,00,00,
2210612,0000073D,false,Rx,0,8,05,D9,8F,E0,8F,03,00,00,
2210698,0000076A,false,Rx,0,8,00,10,0C,04,03,89,40,22,
2210783,0000024A,false,Rx,0,1,01,00,00,00,00,00,00,00,
2210868,00000682,false,Rx,0,8,00,00,00,40,04,17,80,5A,
2210954,000007AA,false,Rx,0,8,03,38,F9,92,07,38,F9,00,
2211071,0000012A,false,Rx,0,8,02,2A,86,95,7F,95,96,95,
2211158,00000118,false,Rx,0,8,60,06,E1,20,00,00,40,00,
2211277,0000078A,false,Rx,0,8,01,00,00,00,00,00,0C,13,
2211369,000001F9,false,Rx,0,1,00,00,00,00,00,00,00,00,
2211454,0000012A,false,Rx,0,8,03,2A,6F,95,76,95,9C,95,
2211540,00000232,false,Rx,0,8,09,04,CF,09,CC,04,00,00,
2211625,0000020A,false,Rx,0,6,36,65,2E,A2,18,21,00,00,
2211711,0000014A,false,Rx,0,8,00,2A,08,07,EA,06,F4,06,
2211796,000003B2,false,Rx,0,8,56,0E,84,04,0C,5C,BB,06,
2211882,00000401,false,Rx,0,8,00,2A,89,95,90,95,73,95,
2211999,0000074A,false,Rx,0,8,00,00,00,00,00,00,00,00,
2212085,0000022A,false,Rx,0,4,00,00,F9,16,00,00,00,00,
2212174,0000012A,false,Rx,0,8,04,2A,81,95,73,95,86,95,
2212260,0000076C,false,Rx,0,8,69,01,90,01,0C,00,9D,FF,
2212352,00000401,false,Rx,0,8,01,2A,82,95,9C,95,8C,95,
2212438,000003D2,false,Rx,0,8,31,97,35,00,70,2F,38,00,
2212523,000003A1,false,Rx,0,8,48,6A,4C,95,00,20,02,46,
2212609,00000732,false,Rx,0,6,B1,05,E0,0D,06,02,00,00,
2212694,00000401,false,Rx,0,8,02,2A,87,95,80,95,97,95,
2212779,0000012A,false,Rx,0,8,05,2A,83,95,66,95,71,95,
2212896,0000013D,false,Rx,0,6,05,00,AA,1A,FF,01,00,00,
2212982,0000073D,false,Rx,0,8,06,03,E8,53,B6,45,02,00,
2213067,00000401,false,Rx,0,8,03,2A,6F,95,77,95,9C,95,
2213187,00000118,false,Rx,0,8,61,07,E1,20,00,00,40,00,
2213273,00000353,false,Rx,0,8,7B,0F,39,80,15,12,EF,F2,
2213398,0000012A,false,Rx,0,8,06,2A,81,95,75,95,79,95,
2214002,00000401,false,Rx,0,8,04,2A,83,95,74,95,87,95,
2215442,0000012A,false,Rx,0,8,07,2A,65,95,73,95,54,95,
2215641,00000152,false,Rx,0,8,00,2A,D4,C3,3A,C3,92,C2,
2215921,00000172,false,Rx,0,8,00,2A,E5,8B,CA,8B,B2,8B,
2216037,0000020A,false,Rx,0,6,36,65,2E,A2,18,21,00,00,
2216238,0000022A,false,Rx,0,4,00,00,F9,16,00,00,00,00,
2216444,00000232,false,Rx,0,8,09,04,D4,09,CB,04,00,00,
2216725,000003B2,false,Rx,0,8,56,0E,83,04,0C,5C,BB,06,
2216924,00000401,false,Rx,0,8,05,2A,84,95,66,95,72,95,
2217206,00000712,false,Rx,0,8,00,2A,08,07,EA,06,F4,06,
2217658,0000076C,false,Rx,0,8,6A,57,41,B4,0E,FF,FF,FF,
2218020,00000401,false,Rx,0,8,06,2A,82,95,77,95,7B,95,
2218384,0000012A,false,Rx,0,8,08,2A,43,95,52,95,60,95,
2219974,00000401,false,Rx,0,8,07,2A,66,95,74,95,55,95,
2220996,0000013D,false,Rx,0,6,05,00,AA,1A,FF,01,00,00,
2221278,0000073D,false,Rx,0,8,07,00,00,00,00,00,00,00,
2221486,0000012A,false,Rx,0,8,09,2A,54,95,63,95,40,95,
2222010,00000401,false,Rx,0,8,08,2A,44,95,53,95,61,95,
2222952,00000118,false,Rx,0,8,62,08,E1,20,00,00,40,00,
2223811,0000079D,false,Rx,0,8,09,02,67,35,35,AB,67,2C,
2224091,00000401,false,Rx,0,8,09,2A,54,95,64,95,40,95,
2224382,0000012A,false,Rx,0,8,0A,2A,74,95,5D,95,64,95,
2225484,00000232,false,Rx,0,8,09,04,D2,09,CB,04,00,00,
2225683,0000020A,false,Rx,0,6,36,65,2E,A2,18,21,00,00,
2225963,0000014A,false,Rx,0,8,01,2A,26,07,12,07,EA,06,
2226081,0000022A,false,Rx,0,4,00,00,F9,16,00,00,00,00,
2226370,000003B2,false,Rx,0,8,57,0E,82,04,0C,5C,BB,06,
2226570,00000401,false,Rx,0,8,0A,2A,75,95,5D,95,65,95,
2226769,00000712,false,Rx,0,8,01,2A,26,07,08,07,EA,06,
2227130,00000221,false,Rx,0,8,20,41,01,00,54,51,F1,1B,
2227414,0000012A,false,Rx,0,8,0B,2A,6C,95,7C,95,6C,95,
2227695,0000076C,false,Rx,0,8,6B,CD,06,00,00,00,00,00,
2227894,000007BD,false,Rx,0,8,69,0D,93,F6,1C,D2,CE,01,
2228177,00000401,false,Rx,0,8,0B,2A,6C,95,7D,95,6C,95,
2229367,0000012A,false,Rx,0,8,0C,2A,4D,95,72,95,5A,95,
2230053,00000401,false,Rx,0,8,0C,2A,4D,95,71,95,5B,95,
2231012,0000013D,false,Rx,0,6,05,00,AA,1A,FF,01,00,00,
2231312,0000073D,false,Rx,0,8,68,00,02,00,00,00,00,00,
2232006,00000401,false,Rx,0,8,0D,2A,64,95,79,95,69,95,
2232379,0000012A,false,Rx,0,8,0D,2A,63,95,79,95,69,95,
2232913,00000118,false,Rx,0,8,63,09,E1,20,00,00,40,00,
2234018,00000401,false,Rx,0,8,0E,2A,68,95,64,95,7C,95,
2235449,0000012A,false,Rx,0,8,0E,2A,68,95,64,95,7B,95,
2235648,0000020A,false,Rx,0,6,36,65,2E,A2,18,21,00,00,
2235846,0000014A,false,Rx,0,8,02,0A,F4,06,26,07,FF,7F,
2236126,00000232,false,Rx,0,8,09,04,D4,09,CB,04,00,00,
2236327,000003B2,false,Rx,0,8,57,0E,84,04,0C,5C,BB,06,
2236534,00000401,false,Rx,0,8,0F,2A,74,95,78,95,6E,95,
2236815,00000712,false,Rx,0,8,02,0A,EA,06,26,07,00,00,
2237014,0000074A,false,Rx,0,8,01,00,00,00,00,00,00,00,
2237226,0000022A,false,Rx,0,4,00,00,F9,16,00,00,00,00,
2237677,0000076C,false,Rx,0,8,6C,00,00,FF,01,D3,0B,00,
2238038,00000401,false,Rx,0,8,10,2A,78,95,84,95,72,95,
2238409,0000012A,false,Rx,0,8,0F,2A,74,95,78,95,6D,95,
2239421,00000272,false,Rx,0,8,AB,A1,39,24,ED,72,2E,07,
2239628,000002B2,false,Rx,0,5,23,B3,00,00,00,00,00,00,
2239746,00000432,false,Rx,0,2,1C,00,00,00,00,00,00,00,
2240107,00000401,false,Rx,0,8,11,2A,75,95,7C,95,7B,95,
2240391,0000012A,false,Rx,0,8,10,2A,78,95,84,95,72,95,
2241011,0000075D,false,Rx,0,8,C2,9C,03,30,59,00,00,00,
2241226,0000021D,false,Rx,0,8,3D,00,00,0D,40,00,20,80,
2241342,0000041D,false,Rx,0,1,34,00,00,00,00,00,00,00,
2241631,0000025D,false,Rx,0,8,DB,8C,01,B8,4A,C1,0A,E0,
2241829,0000013D,false,Rx,0,6,05,00,AA,1A,FF,01,00,00,
2242028,0000027D,false,Rx,0,8,55,03,00,56,F5,AA,58,8D,
2242229,00000401,false,Rx,0,8,12,2A,7C,95,70,95,84,95,
2242428,0000029D,false,Rx,0,4,A9,06,82,13,00,00,00,00,
2242627,0000043D,false,Rx,0,6,05,00,AA,1A,FF,01,00,00,
2242744,000002BD,false,Rx,0,4,DE,02,23,63,00,00,00,00,
2243025,00000118,false,Rx,0,8,64,0A,E1,20,00,00,40,00,
2243229,00000244,false,Rx,0,8,23,03,AB,06,AB,1A,AB,02,
2243518,0000012A,false,Rx,0,8,11,2A,74,95,7B,95,7B,95,
2243717,000002BE,false,Rx,0,8,F4,01,E2,04,F4,01,FF,01,
2243997,00000541,false,Rx,0,8,23,03,AB,06,00,00,00,00,
2244198,0000025E,false,Rx,0,8,F4,01,E2,04,88,13,FF,01,
2244399,00000401,false,Rx,0,8,13,2A,68,95,68,95,8D,95,
2244680,00000214,false,Rx,0,8,09,01,00,80,A9,06,82,33,
2244797,0000077D,false,Rx,0,3,3B,12,00,00,00,00,00,00,
2245078,000002DE,false,Rx,0,8,E1,04,4A,0E,3F,00,00,00,
2245196,000007DD,false,Rx,0,2,1C,01,00,00,00,00,00,00,
2245483,0000073D,false,Rx,0,8,89,00,00,00,08,00,00,C0,
2245683,00000152,false,Rx,0,8,01,2A,66,C3,3B,C3,91,C3,
2245882,00000172,false,Rx,0,8,01,2A,B5,8B,DC,8B,F6,8B,
2246081,0000020A,false,Rx,0,6,36,65,2E,A2,18,21,00,00,
2246282,0000022A,false,Rx,0,4,00,00,F9,16,00,00,00,00,
2246489,0000012A,false,Rx,0,8,12,2A,7C,95,6F,95,84,95,
2246769,00000232,false,Rx,0,8,09,04,D4,09,CB,04,00,00,
2246887,000002D1,false,Rx,0,2,7F,01,00,00,00,00,00,00,
2247086,000003B2,false,Rx,0,8,57,0E,86,04,0C,5C,BB,06,
2247289,00000401,false,Rx,0,8,14,2A,68,95,61,95,6E,95,
2247578,00000545,false,Rx,0,8,03,19,64,32,19,00,10,25,
2247777,00000712,false,Rx,0,8,03,00,00,00,00,00,00,00,
2248058,00000401,false,Rx,0,8,15,2A,75,95,44,95,60,95,
2248258,0000076C,false,Rx,0,8,6D,FA,06,C9,13,D1,13,00,
2249368,0000012A,false,Rx,0,8,13,2A,67,95,67,95,8D,95,
2250054,00000401,false,Rx,0,8,16,2A,71,95,64,95,68,95,
2250994,0000013D,false,Rx,0,6,05,00,AA,1A,FF,01,00,00,
2251278,0000073D,false,Rx,0,8,0A,00,00,00,00,00,00,00,
2252055,00000401,false,Rx,0,8,17,2A,51,95,78,95,48,95,
2252426,0000012A,false,Rx,0,8,14,2A,68,95,61,95,6E,95,
2252625,00000118,false,Rx,0,8,65,0B,E1,20,00,00,40,00,
2254052,00000401,false,Rx,0,8,18,2A,36,95,47,95,55,95,
2254423,0000012A,false,Rx,0,8,15,2A,74,95,44,95,5F,95,
2255528,00000232,false,Rx,0,8,09,04,D3,09,CB,04,00,00,
2255726,0000020A,false,Rx,0,6,36,65,2E,A2,18,21,00,00,
2255925,0000014A,false,Rx,0,8,03,00,00,00,00,00,00,00,
2290566,0000022A,false,Rx,0,4,00,00,F9,16,00,00,00,00,
2290652,000003B2,false,Rx,0,8,57,0E,83,04,0C,5C,BB,06,
2290738,00000401,false,Rx,0,8,19,2A,51,95,4C,95,40,95,
2290823,00000712,false,Rx,0,8,04,00,00,00,00,00,00,00,
2290909,0000012A,false,Rx,0,8,16,2A,71,95,64,95,68,95,
2291027,0000076C,false,Rx,0,8,6E,25,07,00,00,00,00,00,
2291112,00000559,false,Rx,0,6,00,00,00,00,00,00,00,00,
2291199,00000401,false,Rx,0,8,1A,2A,68,95,51,95,61,95,
2291317,00000405,false,Rx,0,8,11,33,46,37,45,41,37,4C,
2291411,000007FF,false,Rx,0,8,03,31,09,A9,60,42,00,11,
2291496,000003A1,false,Rx,0,8,03,00,00,00,00,00,10,A4,
2291582,000002C4,false,Rx,0,8,1A,75,91,03,0C,28,E0,00,
2291667,00000401,false,Rx,0,8,1B,2A,50,95,7B,95,64,95,
2291753,00000204,false,Rx,0,8,01,00,00,FF,00,00,00,10,
2291838,0000012A,false,Rx,0,8,17,2A,51,95,78,95,48,95,
2291924,00000264,false,Rx,0,6,34,00,00,00,A0,00,00,00,
2292009,00000224,false,Rx,0,8,04,08,00,40,19,01,10,08,
2292127,0000013D,false,Rx,0,6,05,00,AA,1A,FF,01,00,00,
2292214,000002B4,false,Rx,0,5,5C,19,27,18,01,00,00,00,
2292299,0000073D,false,Rx,0,8,F0,B6,A9,02,B8,00,00,00,
2292393,00000401,false,Rx,0,8,1C,2A,40,95,64,95,55,95,
2292479,00000118,false,Rx,0,8,66,0C,E1,20,00,00,40,00,
2292564,0000012A,false,Rx,0,8,18,2A,35,95,46,95,55,95,
2292682,00000401,false,Rx,0,8,1D,2A,5C,95,65,95,64,95,
2292768,0000079D,false,Rx,0,8,09,02,67,35,35,AB,67,2C,
2292853,0000012A,false,Rx,0,8,19,2A,50,95,4C,95,40,95,
2292939,0000020A,false,Rx,0,6,36,65,2E,A2,18,21,00,00,
2293024,0000022A,false,Rx,0,4,00,00,F9,16,00,00,00,00,
2293109,00000232,false,Rx,0,8,09,04,D4,09,CC,04,00,00,
2293197,000003B2,false,Rx,0,8,57,0E,83,04,0C,5C,BB,06,
2293282,00000401,false,Rx,0,8,1E,2A,64,95,52,95,76,95,
2293408,00000712,false,Rx,0,8,05,00,00,00,00,00,00,00,
2293494,0000076C,false,Rx,0,8,6F,58,32,CD,1C,CD,0C,00,
2293612,00000401,false,Rx,0,8,1F,2A,68,95,60,95,51,95,
2293697,0000012A,false,Rx,0,8,1A,2A,67,95,51,95,60,95,
2293783,000007BD,false,Rx,0,8,69,0D,93,F6,1C,D2,CE,01,
2293868,00000401,false,Rx,0,8,20,00,00,00,00,00,00,00,
2293954,0000013D,false,Rx,0,6,05,00,AA,1A,FF,01,00,00,
2294039,0000073D,false,Rx,0,8,31,00,CC,09,00,00,D0,09,
2294125,0000012A,false,Rx,0,8,1B,2A,50,95,7A,95,63,95,
2294212,00000401,false,Rx,0,8,21,00,00,00,00,00,00,00,
2294297,00000118,false,Rx,0,8,67,0D,E1,20,00,00,40,00,
2294391,00000279,false,Rx,0,4,56,CE,0C,01,00,00,00,00,
2294476,00000401,false,Rx,0,8,22,00,00,00,00,00,00,00,
2294562,0000012A,false,Rx,0,8,1C,2A,40,95,64,95,54,95,
2294647,00000232,false,Rx,0,8,09,04,D1,09,CB,04,00,00,
2294733,00000152,false,Rx,0,8,02,0A,5C,C3,A5,C3,00,00,
2294818,00000172,false,Rx,0,8,02,0A,BA,8B,D9,8B,00,00,
2294904,0000020A,false,Rx,0,6,36,65,2E,A2,18,21,00,00,
2294989,0000014A,false,Rx,0,8,04,00,00,00,00,00,00,00,
2295075,000003B2,false,Rx,0,8,57,0E,81,04,0C,5C,BB,06,
2295164,00000401,false,Rx,0,8,23,00,00,00,00,00,00,00,
2295250,0000074A,false,Rx,0,8,02,00,00,00,00,00,00,00,
2295335,0000022A,false,Rx,0,4,00,00,F9,16,00,00,00,00,
2295461,0000012A,false,Rx,0,8,1D,2A,5C,95,65,95,64,95,
2295546,00000221,false,Rx,0,8,21,01,55,00,00,00,00,9A,
2295663,0000076C,false,Rx,0,8,70,85,01,61,E0,23,F8,08,
2295748,0000012A,false,Rx,0,8,1E,2A,63,95,50,95,76,95,
2295866,0000013D,false,Rx,0,6,05,00,AA,1A,FF,01,00,00,
2295952,0000073D,false,Rx,0,8,32,59,00,00,00,00,00,00,
2296069,0000012A,false,Rx,0,8,1F,2A,67,95,60,95,50,95,
2296158,00000118,false,Rx,0,8,68,0E,E1,20,00,00,40,00,
2296244,0000012A,false,Rx,0,8,20,00,00,00,00,00,00,00,
2296369,0000020A,false,Rx,0,6,36,65,2E,A2,18,21,00,00,
2296454,0000013D,false,Rx,0,6,05,00,AA,1A,FF,01,00,00,
2296540,0000073D,false,Rx,0,8,03,00,EF,18,00,00,00,00,
2296625,00000339,false,Rx,0,8,40,41,00,00,00,01,40,0F,
2296711,00000118,false,Rx,0,8,69,0F,E1,20,00,00,40,00,
2296796,0000012A,false,Rx,0,8,23,00,00,00,00,00,00,00,
2296882,00000545,false,Rx,0,8,3A,00,F8,50,9B,B5,29,45,
2296967,00000232,false,Rx,0,8,09,04,D4,09,CB,04,00,00,
2297053,0000020A,false,Rx,0,6,36,65,2E,A2,18,21,00,00,
2297138,0000022A,false,Rx,0,4,00,00,F9,16,00,00,00,00,
2297225,000003B2,false,Rx,0,8,58,0E,8A,04,0C,5C,BB,06,
2297310,0000012A,false,Rx,0,8,00,2A,88,95,90,95,73,95,
2297598,0000076C,false,Rx,0,8,77,BB,00,57,2E,11,1E,00,
2299386,0000012A,false,Rx,0,8,01,2A,82,95,9C,95,8C,95,
2301058,0000013D,false,Rx,0,6,05,00,AA,1A,FF,01,00,00,
2301259,0000073D,false,Rx,0,8,04,00,00,00,00,00,00,00,
2301708,0000077A,false,Rx,0,8,01,00,DC,5C,2C,5E,6C,5D,
2301825,0000024A,false,Rx,0,1,01,00,00,00,00,00,00,00,
2302106,00000682,false,Rx,0,8,00,00,00,40,04,17,90,6A,
2302306,000007AA,false,Rx,0,8,84,00,80,C0,00,1A,00,00,
2302513,0000012A,false,Rx,0,8,02,2A,87,95,80,95,97,95,
2302794,0000078A,false,Rx,0,8,01,00,01,00,00,00,0E,0D,
2302993,00000118,false,Rx,0,8,5A,00,E1,20,00,00,40,00,
2303773,000001F9,false,Rx,0,1,00,00,00,00,00,00,00,00,
2304387,0000012A,false,Rx,0,8,03,2A,6F,95,77,95,9C,95,
2305489,00000232,false,Rx,0,8,09,04,D7,09,CC,04,00,00,
2305688,0000020A,false,Rx,0,6,36,65,2E,A2,18,21,00,00,
2305968,0000014A,false,Rx,0,8,00,2A,08,07,EA,06,F4,06,
2306169,000003B2,false,Rx,0,8,58,0E,8A,04,0C,5C,BB,06,
2306375,00000401,false,Rx,0,8,00,2A,8A,95,91,95,74,95,
2306655,0000074A,false,Rx,0,8,00,00,00,00,00,00,00,00,
2306772,0000022A,false,Rx,0,4,00,00,F9,16,00,00,00,00,
2307052,0000079D,false,Rx,0,8,09,02,67,35,35,AB,67,2C,
2307423,0000012A,false,Rx,0,8,04,2A,82,95,73,95,87,95,
2307703,0000076C,false,Rx,0,8,78,A4,00,4F,EE,10,1A,00,
2308065,00000401,false,Rx,0,8,01,2A,83,95,9C,95,8C,95,
2309332,000003A1,false,Rx,0,8,48,6A,4C,95,00,1C,22,62,
2310026,00000401,false,Rx,0,8,02,2A,88,95,80,95,98,95,
2310397,0000012A,false,Rx,0,8,05,2A,84,95,66,95,72,95,
2310595,000007BD,false,Rx,0,8,69,0D,93,F6,1C,D2,CE,01,
2311038,0000013D,false,Rx,0,6,05,00,AA,1A,FF,01,00,00,
2311239,0000073D,false,Rx,0,8,05,EC,8F,E1,8F,03,00,00,
2312016,00000401,false,Rx,0,8,03,2A,70,95,78,95,9D,95,
2312630,00000118,false,Rx,0,8,5B,01,E1,20,00,00,40,00,
2313401,0000012A,false,Rx,0,8,06,2A,82,95,76,95,7A,95,
2314006,00000401,false,Rx,0,8,04,2A,83,95,74,95,87,95,
2315448,0000012A,false,Rx,0,8,07,2A,66,95,74,95,55,95,
2315647,00000152,false,Rx,0,8,00,2A,DE,C3,3F,C3,92,C2,
2315846,00000172,false,Rx,0,8,00,2A,E5,8B,CA,8B,B2,8B,
2316045,0000020A,false,Rx,0,6,36,65,2E,A2,18,21,00,00,
2316246,0000022A,false,Rx,0,4,00,00,F9,16,00,00,00,00,
2316454,00000232,false,Rx,0,8,09,04,D2,09,CB,04,00,00,
2316734,000003B2,false,Rx,0,8,5A,0E,8A,04,0C,5C,BB,06,
2316934,00000401,false,Rx,0,8,05,2A,84,95,67,95,73,95,
2317215,00000712,false,Rx,0,8,00,2A,FE,06,EA,06,F4,06,
2317667,0000076C,false,Rx,0,8,79,22,05,FE,05,00,00,00,
2318029,00000401,false,Rx,0,8,06,2A,83,95,77,95,7B,95,
2318393,0000012A,false,Rx,0,8,08,2A,44,95,53,95,61,95,
2319983,00000401,false,Rx,0,8,07,2A,66,95,74,95,55,95,
2321005,0000013D,false,Rx,0,6,05,00,AA,1A,FF,01,00,00,
2321291,0000073D,false,Rx,0,8,16,03,E8,13,B7,43,02,00,
2321499,0000012A,false,Rx,0,8,09,2A,54,95,64,95,40,95,
2322023,00000401,false,Rx,0,8,08,2A,44,95,53,95,61,95,
2322964,00000118,false,Rx,0,8,5C,02,E1,20,00,00,40,00,
2323985,00000401,false,Rx,0,8,09,2A,55,95,64,95,40,95,
2324439,0000012A,false,Rx,0,8,0A,2A,74,95,5D,95,64,95,
2325462,00000232,false,Rx,0,8,09,04,D3,09,CC,04,00,00,
2325661,0000020A,false,Rx,0,6,36,65,2E,A2,18,21,00,00,
2325941,0000014A,false,Rx,0,8,01,2A,26,07,08,07,EA,06,
2326058,0000022A,false,Rx,0,4,00,00,F9,16,00,00,00,00,
2326340,000003B2,false,Rx,0,8,5A,0E,87,04,0C,5C,BB,06,
2326547,00000401,false,Rx,0,8,0A,2A,75,95,5D,95,65,95,
2326745,00000712,false,Rx,0,8,01,2A,26,07,12,07,EA,06,
2327107,00000221,false,Rx,0,8,20,41,01,00,54,51,11,3B,
2327390,0000012A,false,Rx,0,8,0B,2A,6C,95,7C,95,6C,95,
2327671,0000076C,false,Rx,0,8,7A,42,1B,00,00,00,00,00,
2328033,00000401,false,Rx,0,8,0B,2A,6D,95,7D,95,6C,95,
2329389,0000012A,false,Rx,0,8,0C,2A,4D,95,72,95,5A,95,
2329994,00000401,false,Rx,0,8,0C,2A,4D,95,72,95,5B,95,
2331017,0000013D,false,Rx,0,6,05,00,AA,1A,FF,01,00,00,
2331299,0000073D,false,Rx,0,8,07,00,00,00,00,00,00,00,
2332075,00000401,false,Rx,0,8,0D,2A,64,95,7A,95,69,95,
2332448,0000012A,false,Rx,0,8,0D,2A,63,95,79,95,69,95,
2332647,00000118,false,Rx,0,8,5D,03,E1,20,00,00,40,00,
2334012,00000401,false,Rx,0,8,0E,2A,68,95,64,95,7C,95,
2335463,0000012A,false,Rx,0,8,0E,2A,68,95,64,95,7C,95,
2335661,0000020A,false,Rx,0,6,36,65,2E,A2,18,21,00,00,
2335869,0000014A,false,Rx,0,8,02,0A,EA,06,26,07,FF,7F,
2336070,00000232,false,Rx,0,8,09,04,D4,09,CB,04,00,00,
2336362,000003B2,false,Rx,0,8,5A,0E,88,04,0C,5C,BB,06,
2336561,00000401,false,Rx,0,8,0F,2A,75,95,78,95,6E,95,
2336760,00000712,false,Rx,0,8,02,0A,EA,06,26,07,00,00,
2337041,0000074A,false,Rx,0,8,01,00,00,00,00,00,00,00,
2337243,0000022A,false,Rx,0,4,00,00,F9,16,00,00,00,00,
2337694,0000076C,false,Rx,0,8,7E,81,50,01,96,00,7F,21,
2338055,00000401,false,Rx,0,8,10,2A,78,95,84,95,73,95,
2338336,00000272,false,Rx,0,8,AB,A1,39,24,6D,73,2E,07,
2338544,0000012A,false,Rx,0,8,0F,2A,74,95,78,95,6E,95,
2338743,000002B2,false,Rx,0,5,46,B3,00,00,00,00,00,00,
2338860,00000432,false,Rx,0,2,1E,00,00,00,00,00,00,00,
2340044,00000401,false,Rx,0,8,11,2A,75,95,7C,95,7C,95,
2340415,0000012A,false,Rx,0,8,10,2A,78,95,84,95,72,95,
2371325,0000041D,false,Rx,0,1,34,00,00,00,00,00,00,00,
2371451,0000021D,false,Rx,0,8,3D,00,00,0D,40,00,20,80,
2371537,0000043D,false,Rx,0,6,05,00,AA,1A,FF,01,00,00,
2371622,0000025D,false,Rx,0,8,DB,8C,01,B8,4A,C1,0A,E0,
2371708,0000013D,false,Rx,0,6,05,00,AA,1A,FF,01,00,00,
2371793,0000027D,false,Rx,0,8,55,03,00,56,F5,AA,58,8D,
2371879,00000401,false,Rx,0,8,12,2A,7D,95,70,95,85,95,
2371964,0000029D,false,Rx,0,4,A9,06,82,13,00,00,00,00,
2372081,00000541,false,Rx,0,8,23,03,AB,06,00,00,00,00,
2372169,000002BD,false,Rx,0,4,DE,02,23,63,00,00,00,00,
2372254,00000118,false,Rx,0,8,5E,04,E1,20,00,00,40,00,
2372339,00000244,false,Rx,0,8,23,03,AB,06,AB,1A,AB,02,
2372433,0000012A,false,Rx,0,8,11,2A,75,95,7C,95,7B,95,
2372518,000002BE,false,Rx,0,8,F4,01,E2,04,F4,01,FF,01,
2372635,0000077D,false,Rx,0,3,3B,12,00,00,00,00,00,00,
2372721,0000025E,false,Rx,0,8,F4,01,E2,04,88,13,FF,01,
2372806,00000401,false,Rx,0,8,13,2A,68,95,68,95,8E,95,
2372892,00000214,false,Rx,0,8,09,01,00,80,A9,06,82,33,
2372977,00000545,false,Rx,0,8,03,19,64,32,19,00,30,45,
2373063,000002DE,false,Rx,0,8,E1,04,4A,0E,3F,00,00,00,
2373150,000007DD,false,Rx,0,2,1C,01,00,00,00,00,00,00,
2373235,000002D1,false,Rx,0,2,7F,01,00,00,00,00,00,00,
2373320,00000232,false,Rx,0,8,09,04,D7,09,CC,04,00,00,
2373414,00000152,false,Rx,0,8,01,2A,4B,C3,A9,C3,90,C3,
2373499,00000172,false,Rx,0,8,01,2A,B6,8B,DC,8B,F6,8B,
2373617,0000020A,false,Rx,0,6,36,65,2E,A2,18,21,00,00,
2373702,0000022A,false,Rx,0,4,00,00,F9,16,00,00,00,00,
2373788,0000012A,false,Rx,0,8,12,2A,7C,95,70,95,84,95,
2373873,000003B2,false,Rx,0,8,5A,0E,8A,04,0C,5C,BB,06,
2373991,00000401,false,Rx,0,8,14,2A,68,95,62,95,6F,95,
2374076,00000712,false,Rx,0,8,03,00,00,00,00,00,00,00,
2374164,0000073D,false,Rx,0,8,68,00,02,00,00,00,00,00,
2374249,0000076C,false,Rx,0,8,01,18,18,1F,21,1B,2B,11,
2374335,00000401,false,Rx,0,8,15,2A,75,95,45,95,60,95,
2374459,0000012A,false,Rx,0,8,13,2A,68,95,68,95,8D,95,
2374544,0000079D,false,Rx,0,8,09,02,67,35,35,AB,67,2C,
2374630,00000401,false,Rx,0,8,16,2A,72,95,65,95,69,95,
2374715,0000013D,false,Rx,0,6,05,00,AA,1A,FF,01,00,00,
2374801,0000073D,false,Rx,0,8,89,00,00,00,08,00,00,C0,
2374886,00000401,false,Rx,0,8,17,2A,52,95,79,95,48,95,
2374972,0000012A,false,Rx,0,8,14,2A,68,95,61,95,6E,95,
2375057,00000118,false,Rx,0,8,5F,05,E1,20,00,00,40,00,
2375143,000007BD,false,Rx,0,8,69,0D,93,F6,1C,D2,CE,01,
