Time Stamp,ID,Extended,Dir,Bus,LEN,D1,D2,D3,D4,D5,D6,D7,D8
132493897,0000020A,false,Rx,0,6,F6,15,09,82,18,01,00,00,
132494035,0000022A,false,Rx,0,4,00,00,D9,15,00,00,00,00,
132494489,0000012A,false,Rx,0,8,12,2A,17,8E,1F,8E,11,8E,
132494769,00000401,false,Rx,0,8,16,2A,1D,8E,1C,8E,1D,8E,
132496044,0000013D,false,Rx,0,6,00,00,00,00,FF,00,00,00,
132496326,0000073D,false,Rx,0,8,05,DD,AC,E6,AC,02,00,00,
132496778,00000401,false,Rx,0,8,17,2A,1B,8E,19,8E,1E,8E,
132497476,0000012A,false,Rx,0,8,13,2A,18,8E,1C,8E,17,8E,
132497838,0000076C,false,Rx,0,8,0B,02,00,D0,20,FF,0F,32,
132498797,00000401,false,Rx,0,8,18,2A,10,8E,0F,8E,11,8E,
132500228,00000232,false,Rx,0,8,4A,00,D6,09,CC,04,00,00,
132500435,000003B2,false,Rx,0,8,A1,0D,FA,FF,00,57,BB,06,
132500715,0000012A,false,Rx,0,8,14,2A,14,8E,13,8E,1F,8E,
132500915,00000401,false,Rx,0,8,19,2A,0F,8E,0B,8E,0C,8E,
132501197,00000712,false,Rx,0,8,04,00,00,00,00,00,00,00,
132502469,0000012A,false,Rx,0,8,15,2A,14,8E,11,8E,12,8E,
132502668,00000221,false,Rx,0,8,21,01,55,00,00,00,C0,5A,
132502949,00000401,false,Rx,0,8,1A,2A,12,8E,0D,8E,14,8E,
132503645,0000014A,false,Rx,0,8,03,00,00,00,00,00,00,00,
132503844,0000020A,false,Rx,0,6,F6,15,09,82,18,01,00,00,
132504043,0000022A,false,Rx,0,4,00,00,D9,15,00,00,00,00,
132504740,00000401,false,Rx,0,8,1B,2A,0E,8E,14,8E,12,8E,
132505436,0000012A,false,Rx,0,8,16,2A,1D,8E,1C,8E,1D,8E,
132506041,0000013D,false,Rx,0,6,00,00,00,00,FF,00,00,00,
132506323,0000073D,false,Rx,0,8,06,00,00,50,02,1F,00,00,
132506775,00000401,false,Rx,0,8,1C,2A,09,8E,01,8E,0B,8E,
132507879,0000076C,false,Rx,0,8,0C,00,00,00,20,00,00,00,
132508323,0000012A,false,Rx,0,8,17,2A,1B,8E,1A,8E,1E,8E,
132508774,00000401,false,Rx,0,8,1D,2A,05,8E,00,8E,06,8E,
132510205,00000232,false,Rx,0,8,4A,00,D8,09,CB,04,00,00,
132510492,000003B2,false,Rx,0,8,A1,0D,FA,FF,00,57,BB,06,
132510691,00000712,false,Rx,0,8,05,00,00,00,00,00,00,00,
132510970,00000401,false,Rx,0,8,1E,2A,08,8E,05,8E,0D,8E,
132511504,0000012A,false,Rx,0,8,18,2A,11,8E,0F,8E,11,8E,
132512769,00000401,false,Rx,0,8,1F,2A,09,8E,0C,8E,0C,8E,
132513468,0000012A,false,Rx,0,8,19,2A,0F,8E,0B,8E,0C,8E,
132513667,0000020A,false,Rx,0,6,F6,15,09,82,18,01,00,00,
132513866,0000022A,false,Rx,0,4,00,00,D9,15,00,00,00,00,
132514805,00000401,false,Rx,0,8,20,00,00,00,00,00,00,00,
132516070,0000013D,false,Rx,0,6,00,00,00,00,FF,00,00,00,
132516270,0000073D,false,Rx,0,8,07,00,00,00,00,00,00,00,
132516558,00000339,false,Rx,0,8,78,41,02,00,00,03,40,03,
132516757,0000012A,false,Rx,0,8,1A,2A,12,8E,0D,8E,14,8E,
132517037,00000401,false,Rx,0,8,21,00,00,00,00,00,00,00,
132517896,0000076C,false,Rx,0,8,0D,04,32,8F,BB,28,00,00,
132518756,00000401,false,Rx,0,8,22,00,00,00,00,00,00,00,
132519036,00000545,false,Rx,0,8,26,00,36,C0,9B,B8,E9,A2,
132519569,0000012A,false,Rx,0,8,1B,2A,0E,8E,14,8E,11,8E,
132520261,00000232,false,Rx,0,8,4A,00,D9,09,CB,04,00,00,
132520469,00000152,false,Rx,0,8,02,0A,30,C3,03,C3,00,00,
132520668,00000172,false,Rx,0,8,02,0A,ED,84,F9,84,00,00,
132520949,000003B2,false,Rx,0,8,A1,0D,FA,FF,00,57,BB,06,
132521148,00000401,false,Rx,0,8,23,00,00,00,00,00,00,00,
132522333,0000012A,false,Rx,0,8,1C,2A,09,8E,02,8E,0C,8E,
132523769,0000014A,false,Rx,0,8,04,00,00,00,00,00,00,00,
132523968,0000020A,false,Rx,0,6,F6,15,09,82,18,01,00,00,
132524169,0000074A,false,Rx,0,8,02,00,00,00,00,00,00,00,
132524376,0000022A,false,Rx,0,4,00,00,D9,15,00,00,00,00,
132525559,0000012A,false,Rx,0,8,1D,2A,05,8E,00,8E,06,8E,
132526084,0000013D,false,Rx,0,6,00,00,00,00,FF,00,00,00,
132526287,0000073D,false,Rx,0,8,38,00,01,00,00,00,00,00,
132527560,0000012A,false,Rx,0,8,1E,2A,09,8E,05,8E,0E,8E,
132527840,0000076C,false,Rx,0,8,0E,47,AF,10,BA,02,00,00,
132528039,000001F9,false,Rx,0,1,00,00,00,00,00,00,00,00,
132530208,00000232,false,Rx,0,8,4A,00,D8,09,CB,04,00,00,
132530497,0000012A,false,Rx,0,8,1F,2A,09,8E,0C,8E,0D,8E,
132530696,000003B2,false,Rx,0,8,A1,0D,FA,FF,00,57,BB,06,
132533612,0000012A,false,Rx,0,8,20,00,00,00,00,00,00,00,
132533811,0000020A,false,Rx,0,6,F6,15,09,82,18,01,00,00,
132534091,0000014A,false,Rx,0,8,05,00,00,00,00,00,00,00,
132534212,0000022A,false,Rx,0,4,00,00,D9,15,00,00,00,00,
132535069,000003A1,false,Rx,0,8,48,62,48,95,00,20,E2,1A,
132536089,0000013D,false,Rx,0,6,00,00,00,00,FF,00,00,00,
132536292,0000073D,false,Rx,0,8,39,13,F0,18,B3,01,8F,D1,
132536579,0000012A,false,Rx,0,8,21,00,00,00,00,00,00,00,
132537844,0000076C,false,Rx,0,8,14,1A,20,00,64,00,80,00,
132538378,0000012A,false,Rx,0,8,22,00,00,00,00,00,00,00,
132540049,000002C4,false,Rx,0,8,55,00,02,04,10,00,FF,00,
132540249,00000232,false,Rx,0,8,4A,00,D0,09,CB,04,00,00,
132540538,00000204,false,Rx,0,8,01,00,00,FF,00,00,00,10,
132540737,000003B2,false,Rx,0,8,A1,0D,FA,FF,00,57,BB,06,
132540935,00000264,false,Rx,0,6,34,00,00,00,A0,00,00,00,
132541215,00000224,false,Rx,0,8,04,08,00,40,19,01,10,08,
132541412,000002B4,false,Rx,0,5,5A,31,25,78,00,00,00,00,
132541701,0000012A,false,Rx,0,8,23,00,00,00,00,00,00,00,
132543708,0000020A,false,Rx,0,6,F6,15,09,82,18,01,00,00,
132543907,0000022A,false,Rx,0,4,00,00,D9,15,00,00,00,00,
132559449,0000012A,false,Rx,0,8,00,2A,1D,8E,1A,8E,22,8E,
132559547,0000013D,false,Rx,0,6,00,00,00,00,FF,00,00,00,
132559645,0000073D,false,Rx,0,8,0A,00,00,00,00,00,00,00,
132559731,0000012A,false,Rx,0,8,01,2A,20,8E,1D,8E,16,8E,
132559816,0000076C,false,Rx,0,8,15,01,00,D0,20,00,00,32,
132559902,0000077A,false,Rx,0,8,01,00,60,5D,90,5D,6C,5D,
132559987,0000024A,false,Rx,0,1,03,00,00,00,00,00,00,00,
132560072,00000682,false,Rx,0,8,00,00,00,40,04,17,F0,CA,
132560191,0000012A,false,Rx,0,8,02,2A,1C,8E,1F,8E,1C,8E,
132560277,00000232,false,Rx,0,8,4A,00,D4,09,CB,04,00,00,
132560370,000003B2,false,Rx,0,8,A1,0D,FA,FF,00,57,BB,06,
132560488,00000401,false,Rx,0,8,00,2A,1E,8E,1A,8E,22,8E,
132560577,000007AA,false,Rx,0,8,04,00,0F,C0,00,19,00,00,
132560696,0000078A,false,Rx,0,8,01,00,04,00,00,00,5F,06,
132560781,0000012A,false,Rx,0,8,03,2A,13,8E,1F,8E,24,8E,
132560899,00000221,false,Rx,0,8,20,41,01,0A,00,50,D1,B0,
132560984,00000401,false,Rx,0,8,01,2A,20,8E,1D,8E,17,8E,
132561102,0000014A,false,Rx,0,8,00,2A,D6,06,AE,06,C2,06,
132561192,0000020A,false,Rx,0,6,F6,15,09,82,18,01,00,00,
132561277,0000074A,false,Rx,0,8,00,00,00,00,00,00,00,00,
132561422,0000022A,false,Rx,0,4,00,00,D9,15,00,00,00,00,
132561508,00000401,false,Rx,0,8,02,2A,1C,8E,1E,8E,1C,8E,
132561625,0000012A,false,Rx,0,8,04,2A,14,8E,25,8E,26,8E,
132561710,0000041D,false,Rx,0,1,14,00,00,00,00,00,00,00,
132561796,0000021D,false,Rx,0,8,04,00,04,00,00,00,00,00,
132561881,0000043D,false,Rx,0,6,00,00,00,00,FF,00,00,00,
132561966,0000013D,false,Rx,0,6,00,00,00,00,FF,00,00,00,
132562052,0000025D,false,Rx,0,8,C7,48,01,B8,40,61,01,C0,
132562137,00000401,false,Rx,0,8,03,2A,13,8E,1F,8E,24,8E,
132562224,0000027D,false,Rx,0,8,00,00,00,00,00,00,00,00,
132562310,0000077D,false,Rx,0,3,11,00,00,00,00,00,00,00,
132562403,0000029D,false,Rx,0,4,00,00,00,20,00,00,00,00,
132562488,000007DD,false,Rx,0,2,FF,00,00,00,00,00,00,00,
132562573,000002BD,false,Rx,0,4,00,00,00,00,00,00,00,00,
132562658,0000073D,false,Rx,0,8,20,B7,AA,02,B8,00,00,00,
132562776,0000076C,false,Rx,0,8,16,00,00,00,20,00,00,00,
132562862,0000012A,false,Rx,0,8,05,2A,22,8E,20,8E,1C,8E,
132562947,00000401,false,Rx,0,8,04,2A,14,8E,25,8E,27,8E,
132563033,00000232,false,Rx,0,8,4A,00,D5,09,CB,04,00,00,
132563118,00000152,false,Rx,0,8,00,2A,6A,C3,45,C3,98,C2,
132563206,00000172,false,Rx,0,8,00,2A,F2,84,EB,84,E4,84,
132563291,000003B2,false,Rx,0,8,A1,0D,FA,FF,00,57,BB,06,
132563384,00000401,false,Rx,0,8,05,2A,21,8E,20,8E,1D,8E,
132563503,00000712,false,Rx,0,8,00,2A,CC,06,AE,06,C2,06,
132563588,0000012A,false,Rx,0,8,06,2A,1C,8E,15,8E,1D,8E,
132563705,00000401,false,Rx,0,8,06,2A,1C,8E,15,8E,1C,8E,
132563790,0000012A,false,Rx,0,8,07,2A,1B,8E,1A,8E,21,8E,
132563908,0000020A,false,Rx,0,6,F6,15,09,82,18,01,00,00,
132563994,0000022A,false,Rx,0,4,00,00,D9,15,00,00,00,00,
132564771,00000401,false,Rx,0,8,07,2A,1C,8E,1B,8E,21,8E,
132566037,0000013D,false,Rx,0,6,00,00,00,00,FF,00,00,00,
132566320,0000073D,false,Rx,0,8,31,00,81,F4,FF,00,80,04,
132566527,0000012A,false,Rx,0,8,08,2A,1C,8E,22,8E,25,8E,
132566807,00000401,false,Rx,0,8,08,2A,1D,8E,21,8E,24,8E,
132567828,0000076C,false,Rx,0,8,17,04,32,8F,BB,28,00,00,
132568686,00000545,false,Rx,0,8,03,19,64,32,19,00,F0,05,
132568885,00000401,false,Rx,0,8,09,2A,19,8E,25,8E,16,8E,
132569419,0000012A,false,Rx,0,8,09,2A,19,8E,26,8E,16,8E,
132570269,00000232,false,Rx,0,8,4A,00,D4,09,CB,04,00,00,
132570476,000003B2,false,Rx,0,8,A2,0D,FA,FF,00,57,BB,06,
132570594,000002D1,false,Rx,0,2,7F,01,00,00,00,00,00,00,
132570793,00000401,false,Rx,0,8,0A,2A,16,8E,1E,8E,24,8E,
132571073,00000712,false,Rx,0,8,01,2A,F4,06,D6,06,AE,06,
132572431,0000012A,false,Rx,0,8,0A,2A,16,8E,1E,8E,24,8E,
132572792,00000401,false,Rx,0,8,0B,2A,10,8E,1C,8E,1E,8E,
132573651,0000014A,false,Rx,0,8,01,2A,F4,06,D6,06,B8,06,
132573931,0000020A,false,Rx,0,6,F6,15,09,82,18,01,00,00,
132574048,0000022A,false,Rx,0,4,00,00,D9,15,00,00,00,00,
132574744,00000401,false,Rx,0,8,0C,2A,15,8E,14,8E,14,8E,
132575440,0000012A,false,Rx,0,8,0B,2A,10,8E,1C,8E,1D,8E,
132576045,0000013D,false,Rx,0,6,00,00,00,00,FF,00,00,00,
132576327,0000073D,false,Rx,0,8,22,2D,00,00,00,00,00,00,
132576779,00000401,false,Rx,0,8,0D,2A,14,8E,14,8E,1C,8E,
132577474,0000012A,false,Rx,0,8,0C,2A,15,8E,14,8E,14,8E,
132577835,0000076C,false,Rx,0,8,18,43,AF,13,BA,02,00,00,
132578115,000007FF,false,Rx,0,8,02,46,96,2C,DC,51,95,28,
132578730,00000401,false,Rx,0,8,0E,2A,17,8E,1B,8E,19,8E,
132580243,00000232,false,Rx,0,8,4A,00,D0,09,CB,04,00,00,
132580451,0000012A,false,Rx,0,8,0D,2A,15,8E,14,8E,1C,8E,
132580649,000003B2,false,Rx,0,8,A1,0D,FB,FF,00,57,BB,06,
132580929,00000401,false,Rx,0,8,0F,2A,1C,8E,1C,8E,28,8E,
132581129,00000712,false,Rx,0,8,02,0A,B8,06,F4,06,00,00,
132582728,00000401,false,Rx,0,8,10,2A,19,8E,1D,8E,20,8E,
132583505,0000012A,false,Rx,0,8,0E,2A,17,8E,1C,8E,19,8E,
132583704,0000014A,false,Rx,0,8,02,0A,C2,06,F4,06,FF,7F,
132583903,0000020A,false,Rx,0,6,F6,15,09,82,18,01,00,00,
132584186,0000074A,false,Rx,0,8,01,00,00,00,00,00,00,00,
132584303,0000022A,false,Rx,0,4,00,00,D9,15,00,00,00,00,
132584671,000003A1,false,Rx,0,8,03,00,00,00,00,00,F0,84,
132584952,00000272,false,Rx,0,8,00,00,00,00,00,00,00,00,
132585151,000002B2,false,Rx,0,5,00,00,00,00,00,00,00,00,
132585351,00000401,false,Rx,0,8,11,2A,1B,8E,25,8E,1F,8E,
132585476,00000432,false,Rx,0,2,0A,00,00,00,00,00,00,00,
132586081,0000013D,false,Rx,0,6,00,00,00,00,FF,00,00,00,
132586284,0000073D,false,Rx,0,8,03,00,EF,18,00,00,00,00,
132586490,0000012A,false,Rx,0,8,0F,2A,1C,8E,1C,8E,28,8E,
132586771,00000401,false,Rx,0,8,12,2A,17,8E,20,8E,11,8E,
132587876,0000076C,false,Rx,0,8,1E,15,20,00,64,00,40,00,
132588410,0000012A,false,Rx,0,8,10,2A,1A,8E,1D,8E,20,8E,
132588772,00000401,false,Rx,0,8,13,2A,18,8E,1C,8E,17,8E,
132590205,00000232,false,Rx,0,8,4A,00,CF,09,CB,04,00,00,
132590492,00000152,false,Rx,0,8,01,2A,04,C3,9B,C3,90,C3,
132590691,00000172,false,Rx,0,8,01,2A,D9,84,F5,84,1D,85,
132590891,000003B2,false,Rx,0,8,A1,0D,FA,FF,00,57,BB,06,
132591173,00000401,false,Rx,0,8,14,2A,14,8E,12,8E,1E,8E,
132591380,00000712,false,Rx,0,8,03,00,00,00,00,00,00,00,
132591579,0000012A,false,Rx,0,8,11,2A,1A,8E,25,8E,1E,8E,
132592763,00000401,false,Rx,0,8,15,2A,14,8E,11,8E,11,8E,
132593541,0000020A,false,Rx,0,6,F6,15,09,82,18,01,00,00,
132593739,0000022A,false,Rx,0,4,00,00,D9,15,00,00,00,00,
132594435,0000012A,false,Rx,0,8,12,2A,17,8E,20,8E,12,8E,
132594796,00000401,false,Rx,0,8,16,2A,1D,8E,1C,8E,1D,8E,
132596073,0000013D,false,Rx,0,6,00,00,00,00,FF,00,00,00,
132596362,0000073D,false,Rx,0,8,04,00,00,00,00,00,00,00,
132596804,00000401,false,Rx,0,8,17,2A,1A,8E,1A,8E,1E,8E,
132597418,0000012A,false,Rx,0,8,13,2A,18,8E,1C,8E,18,8E,
132597861,0000076C,false,Rx,0,8,1F,03,00,D0,20,00,00,32,
132598735,00000401,false,Rx,0,8,18,2A,11,8E,0E,8E,10,8E,
132600246,00000232,false,Rx,0,8,4A,00,CD,09,CB,04,00,00,
132600453,000003B2,false,Rx,0,8,A1,0D,FA,FF,00,57,BB,06,
132600653,0000012A,false,Rx,0,8,14,2A,14,8E,13,8E,1F,8E,
132600934,00000401,false,Rx,0,8,19,2A,0E,8E,0C,8E,0C,8E,
132601132,00000712,false,Rx,0,8,04,00,00,00,00,00,00,00,
132602406,0000012A,false,Rx,0,8,15,2A,14,8E,11,8E,12,8E,
132602768,00000401,false,Rx,0,8,1A,2A,12,8E,0D,8E,14,8E,
132602968,00000221,false,Rx,0,8,21,01,55,00,00,00,E0,7A,
132603502,0000014A,false,Rx,0,8,03,00,00,00,00,00,00,00,
132603701,0000020A,false,Rx,0,6,F6,15,09,82,18,01,00,00,
132603899,0000022A,false,Rx,0,4,00,00,D9,15,00,00,00,00,
132604759,00000401,false,Rx,0,8,1B,2A,0E,8E,14,8E,11,8E,
132605457,0000012A,false,Rx,0,8,16,2A,1D,8E,1C,8E,1D,8E,
132606062,0000013D,false,Rx,0,6,00,00,00,00,FF,00,00,00,
132606263,0000073D,false,Rx,0,8,05,F3,AC,E6,AC,02,00,00,
132606795,00000401,false,Rx,0,8,1C,2A,08,8E,01,8E,0B,8E,
132607816,0000076C,false,Rx,0,8,20,00,00,00,30,00,40,00,
132608432,0000012A,false,Rx,0,8,17,2A,1B,8E,19,8E,1E,8E,
132608793,00000401,false,Rx,0,8,1D,2A,06,8E,00,8E,06,8E,
132634581,00000232,false,Rx,0,8,4A,00,CE,09,CB,04,00,00,
132634668,000003B2,false,Rx,0,8,A1,0D,FA,FF,00,57,BB,06,
132634753,00000712,false,Rx,0,8,05,00,00,00,00,00,00,00,
132634839,00000401,false,Rx,0,8,1E,2A,09,8E,05,8E,0E,8E,
132634924,0000012A,false,Rx,0,8,18,2A,10,8E,0F,8E,11,8E,
132635010,00000401,false,Rx,0,8,1F,2A,09,8E,0B,8E,0C,8E,
132635095,0000012A,false,Rx,0,8,19,2A,0F,8E,0B,8E,0C,8E,
132635186,0000020A,false,Rx,0,6,F6,15,09,82,18,01,00,00,
132635303,0000022A,false,Rx,0,4,00,00,D9,15,00,00,00,00,
132635396,00000401,false,Rx,0,8,20,00,00,00,00,00,00,00,
132635481,0000013D,false,Rx,0,6,00,00,00,00,FF,00,00,00,
132635567,0000073D,false,Rx,0,8,06,00,00,E0,01,1F,00,00,
132635652,0000012A,false,Rx,0,8,1A,2A,12,8E,0D,8E,14,8E,
132635738,00000339,false,Rx,0,8,60,41,02,00,00,03,40,03,
132635823,00000401,false,Rx,0,8,21,00,00,00,00,00,00,00,
132635909,0000076C,false,Rx,0,8,21,04,32,8F,BB,28,00,00,
132636026,00000545,false,Rx,0,8,1E,00,31,80,9B,B8,09,75,
132636114,00000401,false,Rx,0,8,22,00,00,00,00,00,00,00,
132636201,0000012A,false,Rx,0,8,1B,2A,0E,8E,14,8E,12,8E,
132636318,00000232,false,Rx,0,8,4A,00,CF,09,CB,04,00,00,
132636412,00000152,false,Rx,0,8,02,0A,55,C3,3F,C3,00,00,
132636530,00000172,false,Rx,0,8,02,0A,EB,84,F8,84,00,00,
132636615,000003B2,false,Rx,0,8,A1,0D,FA,FF,00,57,BB,06,
132636701,00000401,false,Rx,0,8,23,00,00,00,00,00,00,00,
132636786,0000012A,false,Rx,0,8,1C,2A,09,8E,01,8E,0B,8E,
132636872,0000014A,false,Rx,0,8,04,00,00,00,00,00,00,00,
132636957,0000020A,false,Rx,0,6,F6,15,09,82,18,01,00,00,
132637043,0000074A,false,Rx,0,8,02,00,00,00,00,00,00,00,
132637128,0000022A,false,Rx,0,4,00,00,D9,15,00,00,00,00,
132637215,0000012A,false,Rx,0,8,1D,2A,05,8E,00,8E,06,8E,
132637300,0000013D,false,Rx,0,6,00,00,00,00,FF,00,00,00,
132637394,0000073D,false,Rx,0,8,07,00,00,00,00,00,00,00,
132637479,0000012A,false,Rx,0,8,1E,2A,08,8E,05,8E,0D,8E,
132637565,0000076C,false,Rx,0,8,22,46,AF,12,BA,00,00,00,
132637650,000001F9,false,Rx,0,1,00,00,00,00,00,00,00,00,
132637735,00000232,false,Rx,0,8,4A,00,D1,09,CB,04,00,00,
132637853,0000012A,false,Rx,0,8,1F,2A,09,8E,0C,8E,0C,8E,
132637939,000003B2,false,Rx,0,8,A1,0D,FA,FF,00,57,BB,06,
132638024,0000012A,false,Rx,0,8,20,00,00,00,00,00,00,00,
132638110,0000020A,false,Rx,0,6,F6,15,09,82,18,01,00,00,
132638197,0000014A,false,Rx,0,8,05,00,00,00,00,00,00,00,
132638282,0000022A,false,Rx,0,4,00,00,D9,15,00,00,00,00,
132638375,000003A1,false,Rx,0,8,48,62,48,95,00,20,02,3A,
132638492,0000013D,false,Rx,0,6,00,00,00,00,FF,00,00,00,
132638578,0000073D,false,Rx,0,8,38,00,01,00,00,00,00,00,
132638663,0000012A,false,Rx,0,8,21,00,00,00,00,00,00,00,
132638749,0000076C,false,Rx,0,8,33,00,00,00,00,44,20,84,
132638834,0000012A,false,Rx,0,8,22,00,00,00,00,00,00,00,
132640020,000002C4,false,Rx,0,8,16,C0,9A,00,00,00,00,01,
132640221,00000232,false,Rx,0,8,4A,00,CF,09,CD,04,00,00,
132640509,00000204,false,Rx,0,8,01,00,00,FF,00,00,00,10,
132640708,000003B2,false,Rx,0,8,A2,0D,FB,FF,00,57,BB,06,
132640907,00000264,false,Rx,0,6,34,00,00,00,A0,00,00,00,
132641195,00000224,false,Rx,0,8,04,08,00,40,19,01,10,08,
132641395,000002B4,false,Rx,0,5,5A,2D,25,76,00,00,00,00,
132641676,0000012A,false,Rx,0,8,23,00,00,00,00,00,00,00,
132643521,0000020A,false,Rx,0,6,F6,15,09,82,18,01,00,00,
132643719,0000022A,false,Rx,0,4,00,00,D9,15,00,00,00,00,
132644415,0000012A,false,Rx,0,8,00,2A,1D,8E,1A,8E,22,8E,
132646088,0000013D,false,Rx,0,6,00,00,00,00,FF,00,00,00,
132646288,0000073D,false,Rx,0,8,99,02,F0,18,B3,01,8F,D1,
132647479,0000012A,false,Rx,0,8,01,2A,21,8E,1E,8E,16,8E,
132647840,0000076C,false,Rx,0,8,34,00,00,00,00,00,00,00,
132649687,0000078A,false,Rx,0,8,01,00,05,00,00,00,5E,06,
132649803,0000024A,false,Rx,0,1,03,00,00,00,00,00,00,00,
132650084,00000682,false,Rx,0,8,00,00,00,40,04,17,00,DA,
132650287,00000232,false,Rx,0,8,4A,00,D1,09,CC,04,00,00,
132650575,0000012A,false,Rx,0,8,02,2A,1C,8E,1F,8E,1C,8E,
132650774,000003B2,false,Rx,0,8,A2,0D,FA,FF,00,57,BB,06,
132650972,00000401,false,Rx,0,8,00,2A,1D,8E,19,8E,22,8E,
132651255,000007AA,false,Rx,0,8,05,03,00,0D,60,08,D7,04,
132652448,0000012A,false,Rx,0,8,03,2A,14,8E,1F,8E,24,8E,
132652729,00000401,false,Rx,0,8,01,2A,20,8E,1E,8E,17,8E,
132653008,00000221,false,Rx,0,8,20,41,01,0A,00,50,F1,D0,
132653543,0000014A,false,Rx,0,8,00,2A,CC,06,AE,06,C2,06,
132653822,0000020A,false,Rx,0,6,F6,15,09,82,18,01,00,00,
132654021,0000074A,false,Rx,0,8,00,00,00,00,00,00,00,00,
132654224,0000022A,false,Rx,0,4,00,00,D9,15,00,00,00,00,
132654756,00000401,false,Rx,0,8,02,2A,1C,8E,1F,8E,1C,8E,
132655454,0000012A,false,Rx,0,8,04,2A,14,8E,24,8E,27,8E,
132656059,0000075D,false,Rx,0,8,0C,00,00,00,00,00,00,00,
132656260,0000031E,false,Rx,0,8,00,00,00,00,00,00,00,00,
132656467,0000013D,false,Rx,0,6,00,00,00,00,FF,00,00,00,
132656748,0000021D,false,Rx,0,8,04,00,04,00,00,00,00,00,
132656947,00000401,false,Rx,0,8,03,2A,13,8E,1F,8E,24,8E,
132657226,0000025D,false,Rx,0,8,C7,48,01,B8,40,61,01,C0,
132657344,0000041D,false,Rx,0,1,14,00,00,00,00,00,00,00,
132657551,0000027D,false,Rx,0,8,00,00,00,00,00,00,00,00,
132657750,0000043D,false,Rx,0,6,00,00,00,00,FF,00,00,00,
132657948,0000029D,false,Rx,0,4,00,00,00,20,00,00,00,00,
132658230,0000076C,false,Rx,0,8,35,2A,09,01,00,00,00,00,
132658347,000002BD,false,Rx,0,4,00,00,00,00,00,00,00,00,
132658553,0000012A,false,Rx,0,8,05,2A,22,8E,20,8E,1D,8E,
132658833,00000401,false,Rx,0,8,04,2A,13,8E,24,8E,26,8E,
132658950,0000077D,false,Rx,0,3,11,00,00,00,00,00,00,00,
132659149,000007DD,false,Rx,0,2,FF,00,00,00,00,00,00,00,
132659432,0000073D,false,Rx,0,8,0A,00,00,00,00,00,00,00,
132660200,00000232,false,Rx,0,8,4A,00,D3,09,CC,04,00,00,
132660489,00000152,false,Rx,0,8,00,2A,D6,C3,3A,C3,9A,C2,
132660688,00000172,false,Rx,0,8,00,2A,F2,84,EB,84,E4,84,
132660887,000003B2,false,Rx,0,8,A1,0D,FB,FF,00,57,BB,06,
132661170,00000401,false,Rx,0,8,05,2A,21,8E,20,8E,1C,8E,
132661377,00000712,false,Rx,0,8,00,2A,CC,06,AE,06,B8,06,
132661609,0000012A,false,Rx,0,8,06,2A,1C,8E,15,8E,1D,8E,
132662733,00000401,false,Rx,0,8,06,2A,1C,8E,15,8E,1C,8E,
132663450,0000012A,false,Rx,0,8,07,2A,1B,8E,1A,8E,21,8E,
132663649,0000020A,false,Rx,0,6,F6,15,09,82,18,01,00,00,
132663848,0000022A,false,Rx,0,4,00,00,D9,15,00,00,00,00,
132664788,00000401,false,Rx,0,8,07,2A,1C,8E,1A,8E,20,8E,
132666053,0000013D,false,Rx,0,6,00,00,00,00,FF,00,00,00,
132666336,0000073D,false,Rx,0,8,20,B7,A9,02,B8,00,00,00,
132666543,0000012A,false,Rx,0,8,08,2A,1C,8E,22,8E,25,8E,
132666742,00000401,false,Rx,0,8,08,2A,1C,8E,21,8E,24,8E,
132667843,0000076C,false,Rx,0,8,64,F5,02,4B,89,56,BA,0C,
132668620,00000545,false,Rx,0,8,03,19,64,32,19,00,10,25,
132668900,00000401,false,Rx,0,8,09,2A,1A,8E,25,8E,16,8E,
132669434,0000012A,false,Rx,0,8,09,2A,19,8E,26,8E,16,8E,
132670205,00000232,false,Rx,0,8,4A,00,D5,09,CC,04,00,00,
132670493,000003B2,false,Rx,0,8,A1,0D,FB,FF,00,57,BB,06,
132670610,000002D1,false,Rx,0,2,7F,01,00,00,00,00,00,00,
132670809,00000401,false,Rx,0,8,0A,2A,16,8E,1D,8E,24,8E,
132671088,00000712,false,Rx,0,8,01,2A,F4,06,E0,06,AE,06,
132672445,0000012A,false,Rx,0,8,0A,2A,16,8E,1E,8E,24,8E,
132672725,00000401,false,Rx,0,8,0B,2A,10,8E,1C,8E,1D,8E,
132673585,0000014A,false,Rx,0,8,01,2A,F4,06,D6,06,AE,06,
132673784,0000020A,false,Rx,0,6,F6,15,09,82,18,01,00,00,
132673983,0000022A,false,Rx,0,4,00,00,D9,15,00,00,00,00,
132675415,0000012A,false,Rx,0,8,0B,2A,10,8E,1C,8E,1E,8E,
132676102,0000013D,false,Rx,0,6,00,00,00,00,FF,00,00,00,
132676303,0000073D,false,Rx,0,8,31,00,82,04,00,00,80,04,
132676753,00000401,false,Rx,0,8,0D,2A,14,8E,14,8E,1C,8E,
132677451,0000012A,false,Rx,0,8,0C,2A,15,8E,14,8E,14,8E,
132677812,0000076C,false,Rx,0,8,66,E6,A8,0D,00,00,00,00,
132678092,000007FF,false,Rx,0,8,03,31,09,A9,60,42,00,11,
132678790,00000401,false,Rx,0,8,0E,2A,17,8E,1B,8E,19,8E,
132680227,00000232,false,Rx,0,8,4A,00,D6,09,CC,04,00,00,
132680434,000003B2,false,Rx,0,8,A2,0D,FA,FF,00,57,BB,06,
132680715,0000012A,false,Rx,0,8,0D,2A,14,8E,14,8E,1C,8E,
132680915,00000401,false,Rx,0,8,0F,2A,1C,8E,1C,8E,28,8E,
132681114,00000712,false,Rx,0,8,02,0A,B8,06,EA,06,00,00,
132682795,00000401,false,Rx,0,8,10,2A,19,8E,1D,8E,20,8E,
132683492,0000012A,false,Rx,0,8,0E,2A,17,8E,1B,8E,19,8E,
132683691,0000020A,false,Rx,0,6,F6,15,09,82,18,01,00,00,
132683890,0000014A,false,Rx,0,8,02,0A,B8,06,F4,06,FF,7F,
132684173,0000074A,false,Rx,0,8,01,00,00,00,00,00,00,00,
132684291,0000022A,false,Rx,0,4,00,00,D9,15,00,00,00,00,
132711459,000003A1,false,Rx,0,8,03,00,00,00,00,00,10,A4,
132711546,00000401,false,Rx,0,8,11,2A,1A,8E,25,8E,1E,8E,
132711632,00000272,false,Rx,0,8,00,00,00,00,00,00,00,00,
132711717,0000013D,false,Rx,0,6,00,00,00,00,FF,00,00,00,
132711802,000002B2,false,Rx,0,5,00,00,00,00,00,00,00,00,
132711888,0000012A,false,Rx,0,8,0F,2A,1C,8E,1C,8E,28,8E,
132711973,00000432,false,Rx,0,2,0C,00,00,00,00,00,00,00,
132712058,00000401,false,Rx,0,8,12,2A,17,8E,20,8E,12,8E,
132712144,0000073D,false,Rx,0,8,22,2D,00,00,00,00,00,00,
132712231,0000076C,false,Rx,0,8,67,E0,10,5F,2B,60,2B,00,
132712316,0000012A,false,Rx,0,8,10,2A,19,8E,1D,8E,20,8E,
132712409,00000401,false,Rx,0,8,13,2A,18,8E,1C,8E,18,8E,
132712495,00000232,false,Rx,0,8,4A,00,D9,09,CB,04,00,00,
132712580,00000152,false,Rx,0,8,01,2A,49,C3,78,C3,90,C2,
132712666,00000172,false,Rx,0,8,01,2A,D9,84,F5,84,1F,85,
132712784,000003B2,false,Rx,0,8,A1,0D,FA,FF,00,57,BB,06,
132712869,00000401,false,Rx,0,8,14,2A,14,8E,13,8E,1F,8E,
132712955,00000712,false,Rx,0,8,03,00,00,00,00,00,00,00,
132713040,0000012A,false,Rx,0,8,11,2A,1B,8E,25,8E,1F,8E,
132713126,00000401,false,Rx,0,8,15,2A,14,8E,11,8E,12,8E,
132713213,0000020A,false,Rx,0,6,F6,15,09,82,18,01,00,00,
132713298,0000022A,false,Rx,0,4,00,00,D9,15,00,00,00,00,
132713391,0000012A,false,Rx,0,8,12,2A,17,8E,20,8E,11,8E,
132713508,00000401,false,Rx,0,8,16,2A,1C,8E,1C,8E,1D,8E,
132713593,0000013D,false,Rx,0,6,00,00,00,00,FF,00,00,00,
132713711,0000073D,false,Rx,0,8,13,00,EF,18,00,00,00,00,
132713829,00000401,false,Rx,0,8,17,2A,1A,8E,1A,8E,1E,8E,
132713914,0000012A,false,Rx,0,8,13,2A,18,8E,1C,8E,17,8E,
132714000,0000076C,false,Rx,0,8,68,50,FF,AE,01,66,02,00,
132714086,00000401,false,Rx,0,8,18,2A,11,8E,10,8E,10,8E,
132714173,00000232,false,Rx,0,8,4A,00,D9,09,CB,04,00,00,
132714258,000003B2,false,Rx,0,8,A1,0D,FA,FF,00,57,BB,06,
132714344,0000012A,false,Rx,0,8,14,2A,14,8E,12,8E,1E,8E,
132714438,00000333,false,Rx,0,5,84,10,0B,06,03,00,00,00,
132714523,00000401,false,Rx,0,8,19,2A,0E,8E,0B,8E,0C,8E,
132714608,00000712,false,Rx,0,8,04,00,00,00,00,00,00,00,
132714694,0000012A,false,Rx,0,8,15,2A,14,8E,11,8E,11,8E,
132714812,00000221,false,Rx,0,8,21,01,55,00,00,00,00,9A,
132714898,00000401,false,Rx,0,8,1A,2A,12,8E,0D,8E,14,8E,
132714983,0000014A,false,Rx,0,8,03,00,00,00,00,00,00,00,
132715068,0000020A,false,Rx,0,6,F6,15,09,82,18,01,00,00,
132715154,0000022A,false,Rx,0,4,00,00,D9,15,00,00,00,00,
132715240,00000401,false,Rx,0,8,1B,2A,0F,8E,14,8E,11,8E,
132715325,0000012A,false,Rx,0,8,16,2A,1D,8E,1C,8E,1D,8E,
132715418,0000013D,false,Rx,0,6,00,00,00,00,FF,00,00,00,
132715504,0000073D,false,Rx,0,8,04,00,00,00,00,00,00,00,
132715589,00000401,false,Rx,0,8,1C,2A,08,8E,01,8E,0B,8E,
132715675,0000076C,false,Rx,0,8,69,01,90,01,08,00,9D,FF,
132715760,0000012A,false,Rx,0,8,17,2A,1A,8E,1A,8E,1E,8E,
132715846,00000401,false,Rx,0,8,1D,2A,06,8E,00,8E,06,8E,
132715931,00000232,false,Rx,0,8,4A,00,D6,09,CB,04,00,00,
132716049,000003B2,false,Rx,0,8,A1,0D,FA,FF,00,57,BB,06,
132716135,00000712,false,Rx,0,8,05,00,00,00,00,00,00,00,
132716222,00000401,false,Rx,0,8,1E,2A,08,8E,05,8E,0E,8E,
132716340,0000012A,false,Rx,0,8,18,2A,11,8E,0E,8E,10,8E,
132716434,00000401,false,Rx,0,8,1F,2A,09,8E,0C,8E,0D,8E,
132716552,0000012A,false,Rx,0,8,19,2A,0E,8E,0C,8E,0C,8E,
132716638,0000020A,false,Rx,0,6,F6,15,09,82,18,01,00,00,
132716755,0000022A,false,Rx,0,4,00,00,D9,15,00,00,00,00,
132716841,00000401,false,Rx,0,8,20,00,00,00,00,00,00,00,
132716926,0000013D,false,Rx,0,6,00,00,00,00,FF,00,00,00,
132717044,0000073D,false,Rx,0,8,05,DC,AC,E6,AC,02,00,00,
132717130,0000012A,false,Rx,0,8,1A,2A,12,8E,0D,8E,14,8E,
132717217,00000339,false,Rx,0,8,60,41,02,00,00,03,40,03,
132717302,00000401,false,Rx,0,8,21,00,00,00,00,00,00,00,
132717835,0000076C,false,Rx,0,8,6A,03,2A,74,09,FF,FF,FF,
132718778,00000401,false,Rx,0,8,22,00,00,00,00,00,00,00,
132718977,00000545,false,Rx,0,8,1E,00,35,70,9B,B7,29,88,
132719423,0000012A,false,Rx,0,8,1B,2A,0E,8E,14,8E,11,8E,
132720195,00000232,false,Rx,0,8,4A,00,D1,09,CB,04,00,00,
132720483,00000152,false,Rx,0,8,02,0A,45,C3,48,C3,00,00,
132720682,00000172,false,Rx,0,8,02,0A,ED,84,F8,84,00,00,
132720961,000003B2,false,Rx,0,8,A1,0D,FA,FF,00,57,BB,06,
132721161,00000401,false,Rx,0,8,23,00,00,00,00,00,00,00,
132722434,0000012A,false,Rx,0,8,1C,2A,08,8E,01,8E,0B,8E,
132723539,0000014A,false,Rx,0,8,04,00,00,00,00,00,00,00,
132723819,0000020A,false,Rx,0,6,F6,15,09,82,18,01,00,00,
132724018,0000074A,false,Rx,0,8,02,00,00,00,00,00,00,00,
132724219,0000022A,false,Rx,0,4,00,00,D9,15,00,00,00,00,
132725410,0000012A,false,Rx,0,8,1D,2A,06,8E,00,8E,06,8E,
132726097,0000013D,false,Rx,0,6,00,00,00,00,FF,00,00,00,
132726299,0000073D,false,Rx,0,8,06,00,00,A0,02,2B,00,00,
132727410,0000012A,false,Rx,0,8,1E,2A,09,8E,05,8E,0E,8E,
132727690,00000405,false,Rx,0,8,12,46,35,39,34,36,39,34,
132727970,0000076C,false,Rx,0,8,6B,CD,06,00,00,00,00,00,
132728086,000001F9,false,Rx,0,1,00,00,00,00,00,00,00,00,
132730260,00000232,false,Rx,0,8,4A,00,D2,09,CC,04,00,00,
132730467,000003B2,false,Rx,0,8,A1,0D,FA,FF,00,57,BB,06,
132730667,0000012A,false,Rx,0,8,1F,2A,09,8E,0B,8E,0C,8E,
132733497,0000012A,false,Rx,0,8,20,00,00,00,00,00,00,00,
132733696,0000020A,false,Rx,0,6,F6,15,09,82,18,01,00,00,
132733977,0000014A,false,Rx,0,8,05,00,00,00,00,00,00,00,
132734094,0000022A,false,Rx,0,4,00,00,D9,15,00,00,00,00,
132735284,000003A1,false,Rx,0,8,48,62,48,95,00,1C,22,56,
132736059,0000013D,false,Rx,0,6,00,00,00,00,FF,00,00,00,
132736341,0000073D,false,Rx,0,8,07,00,00,00,00,00,00,00,
132736549,0000012A,false,Rx,0,8,21,00,00,00,00,00,00,00,
132737813,0000076C,false,Rx,0,8,6C,00,00,45,01,E3,10,00,
132738428,0000012A,false,Rx,0,8,22,00,00,00,00,00,00,00,
132740020,000002C4,false,Rx,0,8,17,80,00,00,04,90,20,00,
132740221,00000232,false,Rx,0,8,4A,00,CF,09,CC,04,00,00,
132740509,00000204,false,Rx,0,8,01,00,00,FF,00,00,00,10,
132740709,000003B2,false,Rx,0,8,A1,0D,FA,FF,00,57,BB,06,
132740907,00000264,false,Rx,0,6,34,00,00,00,A0,00,00,00,
132741192,00000224,false,Rx,0,8,04,08,00,40,19,01,10,08,
132741399,000002B4,false,Rx,0,5,5A,2D,25,73,00,00,00,00,
132741598,0000012A,false,Rx,0,8,23,00,00,00,00,00,00,00,
132743606,0000020A,false,Rx,0,6,F6,15,09,82,18,01,00,00,
132743724,0000022A,false,Rx,0,4,00,00,D9,15,00,00,00,00,
132744418,0000012A,false,Rx,0,8,00,2A,1E,8E,1A,8E,22,8E,
132746089,0000013D,false,Rx,0,6,00,00,00,00,FF,00,00,00,
132746291,0000073D,false,Rx,0,8,38,00,01,00,00,00,00,00,
132747395,0000012A,false,Rx,0,8,01,2A,20,8E,1D,8E,17,8E,
132747837,0000076C,false,Rx,0,8,6D,90,06,C9,13,99,08,00,
132749765,0000076A,false,Rx,0,8,00,E0,0B,F8,02,00,00,00,
132749882,0000024A,false,Rx,0,1,03,00,00,00,00,00,00,00,
132750167,00000682,false,Rx,0,8,00,00,00,40,04,17,10,EA,
132750375,00000232,false,Rx,0,8,4A,00,D1,09,CC,04,00,00,
132750574,0000012A,false,Rx,0,8,02,2A,1C,8E,1E,8E,1C,8E,
132750853,000003B2,false,Rx,0,8,A1,0D,FB,FF,00,57,BB,06,
132751053,00000401,false,Rx,0,8,00,2A,1D,8E,19,8E,22,8E,
132751334,0000078A,false,Rx,0,8,01,00,06,00,00,00,03,00,
132752445,0000012A,false,Rx,0,8,03,2A,13,8E,1F,8E,24,8E,
132752726,00000221,false,Rx,0,8,20,41,01,0A,00,50,11,F0,
132752925,00000401,false,Rx,0,8,01,2A,20,8E,1E,8E,17,8E,
132753621,0000014A,false,Rx,0,8,00,2A,CC,06,AE,06,C2,06,
132753820,0000020A,false,Rx,0,6,F6,15,09,82,18,01,00,00,
132754099,0000074A,false,Rx,0,8,00,00,00,00,00,00,00,00,
132754221,0000022A,false,Rx,0,4,00,00,D9,15,00,00,00,00,
132754753,00000401,false,Rx,0,8,02,2A,1D,8E,1F,8E,1C,8E,
132755452,0000012A,false,Rx,0,8,04,2A,14,8E,25,8E,27,8E,
132756057,0000031E,false,Rx,0,8,01,00,00,00,00,00,00,00,
132756178,0000041D,false,Rx,0,1,14,00,00,00,00,00,00,00,
132756382,0000021D,false,Rx,0,8,04,00,04,00,00,00,00,00,
132756581,0000013D,false,Rx,0,6,00,00,00,00,FF,00,00,00,
132756862,0000025D,false,Rx,0,8,C7,48,01,B8,40,61,01,C0,
132757061,00000401,false,Rx,0,8,03,2A,14,8E,1F,8E,24,8E,
132757343,0000027D,false,Rx,0,8,00,00,00,00,00,00,00,00,
132757551,0000043D,false,Rx,0,6,00,00,00,00,FF,00,00,00,
132757668,0000029D,false,Rx,0,4,00,00,00,20,00,00,00,00,
132757948,0000076C,false,Rx,0,8,6E,02,03,00,00,00,00,00,
132758147,000002BD,false,Rx,0,4,00,00,00,00,00,00,00,00,
132758266,0000077D,false,Rx,0,3,11,00,00,00,00,00,00,00,
132758473,0000012A,false,Rx,0,8,05,2A,21,8E,20,8E,1D,8E,
132758590,000007DD,false,Rx,0,2,FF,00,00,00,00,00,00,00,
132758869,00000401,false,Rx,0,8,04,2A,14,8E,24,8E,26,8E,
132759067,0000073D,false,Rx,0,8,89,97,EF,18,B3,01,8F,D1,
132760253,00000232,false,Rx,0,8,4A,00,D0,09,CC,04,00,00,
132760460,00000152,false,Rx,0,8,00,2A,A1,C3,3F,C3,9C,C2,
132760659,00000172,false,Rx,0,8,00,2A,F2,84,EA,84,E4,84,
132760940,000003B2,false,Rx,0,8,A0,0D,FA,FF,00,57,BB,06,
132761139,00000401,false,Rx,0,8,05,2A,21,8E,20,8E,1C,8E,
132761340,00000712,false,Rx,0,8,00,2A,D6,06,AE,06,C2,06,
132789619,0000012A,false,Rx,0,8,06,2A,1C,8E,15,8E,1C,8E,
132789706,00000401,false,Rx,0,8,06,2A,1C,8E,15,8E,1C,8E,
132789791,0000012A,false,Rx,0,8,07,2A,1C,8E,1B,8E,21,8E,
132789877,0000020A,false,Rx,0,6,F6,15,09,82,18,01,00,00,
132789962,0000022A,false,Rx,0,4,00,00,D9,15,00,00,00,00,
132790047,00000401,false,Rx,0,8,07,2A,1C,8E,1A,8E,21,8E,
132790133,0000013D,false,Rx,0,6,00,00,00,00,FF,00,00,00,
132790255,0000073D,false,Rx,0,8,0A,00,00,00,00,00,00,00,
132790340,0000012A,false,Rx,0,8,08,2A,1D,8E,21,8E,24,8E,
132790466,00000401,false,Rx,0,8,08,2A,1C,8E,21,8E,24,8E,
132790552,0000076C,false,Rx,0,8,6F,A6,36,CD,1C,CD,0C,00,
132790669,00000545,false,Rx,0,8,03,19,64,32,19,00,30,45,
132790755,00000401,false,Rx,0,8,09,2A,19,8E,26,8E,16,8E,
132790840,0000012A,false,Rx,0,8,09,2A,19,8E,25,8E,16,8E,
132790957,00000232,false,Rx,0,8,4A,00,D2,09,CB,04,00,00,
132791043,000003B2,false,Rx,0,8,A1,0D,FB,FF,00,57,BB,06,
132791164,00000712,false,Rx,0,8,01,2A,F4,06,D6,06,AE,06,
132791250,00000401,false,Rx,0,8,0A,2A,16,8E,1E,8E,24,8E,
132791376,000002D1,false,Rx,0,2,7F,01,00,00,00,00,00,00,
132791461,0000012A,false,Rx,0,8,0A,2A,16,8E,1E,8E,24,8E,
132791579,00000401,false,Rx,0,8,0B,2A,10,8E,1C,8E,1D,8E,
132791665,0000014A,false,Rx,0,8,01,2A,F4,06,E0,06,AE,06,
132791750,0000020A,false,Rx,0,6,F6,15,09,82,18,01,00,00,
132791835,0000022A,false,Rx,0,4,00,00,D9,15,00,00,00,00,
132791921,00000401,false,Rx,0,8,0C,2A,15,8E,14,8E,15,8E,
132792006,0000012A,false,Rx,0,8,0B,2A,10,8E,1C,8E,1E,8E,
132792092,0000013D,false,Rx,0,6,00,00,00,00,FF,00,00,00,
132792179,0000073D,false,Rx,0,8,20,B7,AA,02,B8,00,00,00,
132792264,00000401,false,Rx,0,8,0D,2A,15,8E,14,8E,1C,8E,
132792350,0000012A,false,Rx,0,8,0C,2A,15,8E,14,8E,14,8E,
132792443,0000076C,false,Rx,0,8,70,DB,C1,76,30,26,90,09,
132792528,000007FF,false,Rx,0,8,04,53,56,18,5E,01,00,00,
132792614,00000401,false,Rx,0,8,0E,2A,18,8E,1A,8E,19,8E,
132792731,00000232,false,Rx,0,8,4A,00,D6,09,CC,04,00,00,
132792817,000003B2,false,Rx,0,8,A1,0D,FA,FF,00,57,BB,06,
132792902,0000012A,false,Rx,0,8,0D,2A,14,8E,14,8E,1C,8E,
132792988,00000401,false,Rx,0,8,0F,2A,1C,8E,1C,8E,29,8E,
132793073,00000712,false,Rx,0,8,02,0A,C2,06,FE,06,00,00,
132793161,00000401,false,Rx,0,8,10,2A,19,8E,1D,8E,20,8E,
132793246,0000012A,false,Rx,0,8,0E,2A,17,8E,1B,8E,19,8E,
132793332,0000020A,false,Rx,0,6,F6,15,09,82,18,01,00,00,
132793425,0000014A,false,Rx,0,8,02,0A,B8,06,EA,06,FF,7F,
132793511,0000074A,false,Rx,0,8,01,00,00,00,00,00,00,00,
132793629,0000022A,false,Rx,0,4,00,00,D9,15,00,00,00,00,
132793746,000003A1,false,Rx,0,8,03,00,00,00,00,00,30,C4,
132793832,00000272,false,Rx,0,8,00,00,00,00,00,00,00,00,
132793917,000002B2,false,Rx,0,5,00,00,00,00,00,00,00,00,
132794002,00000401,false,Rx,0,8,11,2A,1A,8E,24,8E,1E,8E,
132794088,00000432,false,Rx,0,2,0E,00,00,00,00,00,00,00,
132794174,0000013D,false,Rx,0,6,00,00,00,00,FF,00,00,00,
132794260,0000073D,false,Rx,0,8,31,00,81,04,00,00,80,04,
132794345,0000012A,false,Rx,0,8,0F,2A,1C,8E,1C,8E,28,8E,
132794470,00000401,false,Rx,0,8,12,2A,16,8E,1F,8E,12,8E,
132794556,0000076C,false,Rx,0,8,71,34,30,00,85,18,7B,00,
132794641,0000012A,false,Rx,0,8,10,2A,19,8E,1D,8E,20,8E,
132794760,00000401,false,Rx,0,8,13,2A,18,8E,1C,8E,18,8E,
132794845,00000232,false,Rx,0,8,4A,00,D6,09,CC,04,00,00,
132794931,00000152,false,Rx,0,8,01,2A,4E,C3,A0,C3,B0,C3,
132795016,00000172,false,Rx,0,8,01,2A,D9,84,F5,84,1F,85,
132795101,000003B2,false,Rx,0,8,A1,0D,FB,FF,00,57,BB,06,
132795189,00000401,false,Rx,0,8,14,2A,14,8E,12,8E,1F,8E,
132795274,00000712,false,Rx,0,8,03,00,00,00,00,00,00,00,
132795368,0000012A,false,Rx,0,8,11,2A,1A,8E,25,8E,1E,8E,
132795462,00000401,false,Rx,0,8,15,2A,14,8E,11,8E,12,8E,
132795548,0000020A,false,Rx,0,6,F6,15,09,82,18,01,00,00,
132795633,0000022A,false,Rx,0,4,00,00,D9,15,00,00,00,00,
132795718,0000012A,false,Rx,0,8,12,2A,17,8E,20,8E,12,8E,
132795804,00000401,false,Rx,0,8,16,2A,1D,8E,1C,8E,1D,8E,
132796084,0000013D,false,Rx,0,6,00,00,00,00,FF,00,00,00,
132796286,0000073D,false,Rx,0,8,22,2D,00,00,00,00,00,00,
132796736,00000401,false,Rx,0,8,17,2A,1A,8E,1A,8E,1E,8E,
132797432,0000012A,false,Rx,0,8,13,2A,18,8E,1C,8E,18,8E,
132797875,0000076C,false,Rx,0,8,77,AE,00,A1,0D,11,0D,00,
132798747,00000401,false,Rx,0,8,18,2A,11,8E,0F,8E,10,8E,
132800257,00000232,false,Rx,0,8,4A,00,D6,09,CC,04,00,00,
132800463,000003B2,false,Rx,0,8,A1,0D,FA,FF,00,57,BB,06,
132800662,0000012A,false,Rx,0,8,14,2A,14,8E,13,8E,1F,8E,
132800943,00000401,false,Rx,0,8,19,2A,0E,8E,0B,8E,0C,8E,
132801142,00000712,false,Rx,0,8,04,00,00,00,00,00,00,00,
132802416,0000012A,false,Rx,0,8,15,2A,14,8E,11,8E,12,8E,
132802778,00000401,false,Rx,0,8,1A,2A,12,8E,0D,8E,14,8E,
132802977,00000221,false,Rx,0,8,21,01,55,00,00,00,20,BA,
132803672,0000014A,false,Rx,0,8,03,00,00,00,00,00,00,00,
132803871,0000020A,false,Rx,0,6,F6,15,09,82,18,01,00,00,
132803988,0000022A,false,Rx,0,4,00,00,D9,15,00,00,00,00,
132804765,00000401,false,Rx,0,8,1B,2A,0E,8E,14,8E,12,8E,
132805462,0000012A,false,Rx,0,8,16,2A,1C,8E,1C,8E,1D,8E,
132806067,0000013D,false,Rx,0,6,00,00,00,00,FF,00,00,00,
132806349,0000073D,false,Rx,0,8,13,00,EF,18,00,00,00,00,
132806800,00000401,false,Rx,0,8,1C,2A,08,8E,02,8E,0B,8E,
132807822,0000076C,false,Rx,0,8,78,9C,00,9C,CD,10,0B,00,
132808437,0000012A,false,Rx,0,8,17,2A,1A,8E,1A,8E,1E,8E,
132808717,00000401,false,Rx,0,8,1D,2A,06,8E,00,8E,06,8E,
132810229,00000232,false,Rx,0,8,4A,00,CD,09,CB,04,00,00,
132810436,000003B2,false,Rx,0,8,A1,0D,FA,FF,00,57,BB,06,
132810717,00000712,false,Rx,0,8,05,00,00,00,00,00,00,00,
132810916,00000401,false,Rx,0,8,1E,2A,08,8E,06,8E,0E,8E,
132811452,0000012A,false,Rx,0,8,18,2A,11,8E,10,8E,10,8E,
132812797,00000401,false,Rx,0,8,1F,2A,09,8E,0C,8E,0C,8E,
132813493,0000012A,false,Rx,0,8,19,2A,0E,8E,0B,8E,0C,8E,
132813692,0000020A,false,Rx,0,6,F6,15,09,82,18,01,00,00,
132813809,0000022A,false,Rx,0,4,00,00,D9,15,00,00,00,00,
132814748,00000401,false,Rx,0,8,20,00,00,00,00,00,00,00,
132816096,0000013D,false,Rx,0,6,00,00,00,00,FF,00,00,00,
132816299,0000073D,false,Rx,0,8,04,00,00,00,00,00,00,00,
132816587,0000012A,false,Rx,0,8,1A,2A,12,8E,0D,8E,14,8E,
132816787,00000339,false,Rx,0,8,60,41,02,00,00,03,40,03,
132817068,00000401,false,Rx,0,8,21,00,00,00,00,00,00,00,
132817845,0000076C,false,Rx,0,8,79,06,05,00,06,00,00,00,
132818788,00000401,false,Rx,0,8,22,00,00,00,00,00,00,00,
132818987,00000545,false,Rx,0,8,1E,00,31,80,9B,B5,49,B2,
132819439,0000012A,false,Rx,0,8,1B,2A,0F,8E,14,8E,11,8E,
132820211,00000232,false,Rx,0,8,4A,00,CF,09,CC,04,00,00,
132820416,00000152,false,Rx,0,8,02,0A,5A,C3,B2,C3,00,00,
132820697,00000172,false,Rx,0,8,02,0A,ED,84,F9,84,00,00,
132820896,000003B2,false,Rx,0,8,A1,0D,FA,FF,00,57,BB,06,
132821178,00000401,false,Rx,0,8,23,00,00,00,00,00,00,00,
132822451,0000012A,false,Rx,0,8,1C,2A,08,8E,01,8E,0B,8E,
132823634,0000014A,false,Rx,0,8,04,00,00,00,00,00,00,00,
132823833,0000020A,false,Rx,0,6,F6,15,09,82,18,01,00,00,
132824114,0000074A,false,Rx,0,8,02,00,00,00,00,00,00,00,
132824234,0000022A,false,Rx,0,4,00,00,D9,15,00,00,00,00,
132825426,0000012A,false,Rx,0,8,1D,2A,06,8E,00,8E,06,8E,
132826112,0000013D,false,Rx,0,6,00,00,00,00,FF,00,00,00,
132826313,0000073D,false,Rx,0,8,05,DE,AC,E4,AC,02,00,00,
132827425,0000012A,false,Rx,0,8,1E,2A,08,8E,05,8E,0E,8E,
132827786,0000076C,false,Rx,0,8,7A,42,1B,00,00,00,00,00,
132828066,000001F9,false,Rx,0,1,00,00,00,00,00,00,00,00,
132830237,00000232,false,Rx,0,8,4A,00,D2,09,CD,04,00,00,
132830443,000003B2,false,Rx,0,8,A1,0D,FB,FF,00,57,BB,06,
132830723,0000012A,false,Rx,0,8,1F,2A,09,8E,0C,8E,0D,8E,
132833470,0000012A,false,Rx,0,8,20,00,00,00,00,00,00,00,
132833669,0000020A,false,Rx,0,6,F6,15,09,82,18,01,00,00,
132833950,0000014A,false,Rx,0,8,05,00,00,00,00,00,00,00,
132834148,0000022A,false,Rx,0,4,00,00,D9,15,00,00,00,00,
132835087,000003A1,false,Rx,0,8,48,62,48,95,00,1C,42,76,
132836109,0000013D,false,Rx,0,6,00,00,00,00,FF,00,00,00,
132836309,0000073D,false,Rx,0,8,06,00,00,60,02,2A,00,00,
132836598,0000012A,false,Rx,0,8,21,00,00,00,00,00,00,00,
132837782,0000076C,false,Rx,0,8,7E,86,50,01,9B,00,AF,21,
132838478,0000012A,false,Rx,0,8,22,00,00,00,00,00,00,00,
132865694,000002C4,false,Rx,0,8,1A,75,91,03,0C,28,E0,00,
132865780,00000204,false,Rx,0,8,01,00,00,FF,00,00,00,10,
132865866,00000232,false,Rx,0,8,4A,00,D3,09,CD,04,00,00,
132865951,00000264,false,Rx,0,6,34,00,00,00,A0,00,00,00,
132866069,000003B2,false,Rx,0,8,A1,0D,FA,FF,00,57,BB,06,
132866155,00000224,false,Rx,0,8,04,08,00,40,19,01,10,08,
132866273,000002B4,false,Rx,0,5,5A,31,25,7D,00,00,00,00,
132866377,0000012A,false,Rx,0,8,23,00,00,00,00,00,00,00,
132866509,000003C4,false,Rx,0,8,19,31,31,33,35,35,35,38,
132866597,0000020A,false,Rx,0,6,F6,15,09,82,18,01,00,00,
132866682,0000022A,false,Rx,0,4,00,00,D9,15,00,00,00,00,
132866800,0000012A,false,Rx,0,8,00,2A,1D,8E,19,8E,22,8E,
132866885,0000013D,false,Rx,0,6,00,00,00,00,FF,00,00,00,
132866971,0000073D,false,Rx,0,8,07,00,00,00,00,00,00,00,
132867056,0000012A,false,Rx,0,8,01,2A,20,8E,1E,8E,17,8E,
132867142,0000076C,false,Rx,0,8,01,18,18,1F,21,1B,2B,0B,
132867229,0000078A,false,Rx,0,8,01,00,07,00,00,00,A5,04,
132867314,0000024A,false,Rx,0,1,03,00,00,00,00,00,00,00,
132867408,00000682,false,Rx,0,8,00,00,00,40,04,17,20,FA,
132867493,00000232,false,Rx,0,8,4A,00,D4,09,CC,04,00,00,
132867579,0000012A,false,Rx,0,8,02,2A,1C,8E,1F,8E,1C,8E,
132867664,000003B2,false,Rx,0,8,A0,0D,FA,FF,00,57,BB,06,
132867782,00000401,false,Rx,0,8,00,2A,1D,8E,1A,8E,23,8E,
132867867,000007AA,false,Rx,0,8,56,02,00,5C,40,57,AF,02,
132867953,0000012A,false,Rx,0,8,03,2A,13,8E,1F,8E,24,8E,
132868038,00000221,false,Rx,0,8,20,41,01,0A,00,50,31,10,
132868124,00000401,false,Rx,0,8,01,2A,21,8E,1E,8E,17,8E,
132868211,0000014A,false,Rx,0,8,00,2A,CC,06,AE,06,B8,06,
132868311,0000020A,false,Rx,0,6,F6,15,09,82,18,01,00,00,
132868404,0000074A,false,Rx,0,8,00,00,00,00,00,00,00,00,
132868490,0000022A,false,Rx,0,4,00,00,D9,15,00,00,00,00,
132868608,00000401,false,Rx,0,8,02,2A,1D,8E,1F,8E,1C,8E,
132868693,0000012A,false,Rx,0,8,04,2A,13,8E,24,8E,26,8E,
132868778,0000075D,false,Rx,0,8,0D,00,00,00,00,00,00,00,
132868897,0000031E,false,Rx,0,8,02,00,00,00,00,00,00,00,
132868982,0000013D,false,Rx,0,6,00,00,00,00,FF,00,00,00,
132869068,0000021D,false,Rx,0,8,04,00,04,00,00,00,00,00,
132869153,00000401,false,Rx,0,8,03,2A,14,8E,1F,8E,24,8E,
132869239,0000025D,false,Rx,0,8,C7,48,01,B8,40,61,01,C0,
132869365,0000041D,false,Rx,0,1,14,00,00,00,00,00,00,00,
132869450,0000027D,false,Rx,0,8,00,00,00,00,00,00,00,00,
132869536,0000043D,false,Rx,0,6,00,00,00,00,FF,00,00,00,
132869621,0000029D,false,Rx,0,4,00,00,00,20,00,00,00,00,
132869706,0000076C,false,Rx,0,8,02,03,04,03,07,00,02,00,
132869792,000002BD,false,Rx,0,4,00,00,00,00,00,00,00,00,
132869877,0000012A,false,Rx,0,8,05,2A,21,8E,20,8E,1C,8E,
132869962,00000401,false,Rx,0,8,04,2A,14,8E,24,8E,26,8E,
132870048,0000077D,false,Rx,0,3,11,00,00,00,00,00,00,00,
132870133,000007DD,false,Rx,0,2,FF,00,00,00,00,00,00,00,
132870254,0000073D,false,Rx,0,8,38,00,01,00,00,00,00,00,
132870339,00000232,false,Rx,0,8,4A,00,D5,09,CC,04,00,00,
132870465,00000152,false,Rx,0,8,00,2A,D6,C3,D4,C2,95,C2,
132870583,00000172,false,Rx,0,8,00,2A,F2,84,EB,84,E4,84,
132870668,000003B2,false,Rx,0,8,A0,0D,FA,FF,00,57,BB,06,
132870786,00000401,false,Rx,0,8,05,2A,21,8E,20,8E,1D,8E,
132870872,00000712,false,Rx,0,8,00,2A,CC,06,A4,06,B8,06,
132870957,0000012A,false,Rx,0,8,06,2A,1C,8E,15,8E,1C,8E,
132871075,00000401,false,Rx,0,8,06,2A,1C,8E,16,8E,1C,8E,
132871164,0000012A,false,Rx,0,8,07,2A,1C,8E,1A,8E,20,8E,
132871250,0000020A,false,Rx,0,6,F6,15,09,82,18,01,00,00,
132871335,0000022A,false,Rx,0,4,00,00,D9,15,00,00,00,00,
132871428,00000401,false,Rx,0,8,07,2A,1C,8E,1B,8E,21,8E,
132871513,0000013D,false,Rx,0,6,00,00,00,00,FF,00,00,00,
132871599,0000073D,false,Rx,0,8,C9,8D,EF,18,B3,01,8F,D1,
132871684,0000012A,false,Rx,0,8,08,2A,1C,8E,21,8E,24,8E,
132871770,00000401,false,Rx,0,8,08,2A,1C,8E,22,8E,24,8E,
132871855,0000076C,false,Rx,0,8,03,59,59,59,59,68,70,00,
132871941,00000545,false,Rx,0,8,03,19,64,32,19,00,50,65,
132872026,00000401,false,Rx,0,8,09,2A,1A,8E,25,8E,16,8E,
132872112,0000012A,false,Rx,0,8,09,2A,1A,8E,25,8E,16,8E,
132872199,00000232,false,Rx,0,8,4A,00,D6,09,CD,04,00,00,
132872284,000003B2,false,Rx,0,8,A0,0D,FA,FF,00,57,BB,06,
132872378,000002D1,false,Rx,0,2,7F,01,00,00,00,00,00,00,
132872463,00000401,false,Rx,0,8,0A,2A,16,8E,1E,8E,24,8E,
132872580,00000712,false,Rx,0,8,01,2A,F4,06,D6,06,B8,06,
132872666,0000012A,false,Rx,0,8,0A,2A,16,8E,1D,8E,24,8E,
132872783,00000401,false,Rx,0,8,0B,2A,10,8E,1C,8E,1D,8E,
132873561,0000014A,false,Rx,0,8,01,2A,F4,06,D6,06,AE,06,
132873760,0000020A,false,Rx,0,6,F6,15,09,82,18,01,00,00,
132873958,0000022A,false,Rx,0,4,00,00,D9,15,00,00,00,00,
132874747,00000401,false,Rx,0,8,0C,2A,15,8E,13,8E,14,8E,
132875524,0000012A,false,Rx,0,8,0B,2A,10,8E,1C,8E,1D,8E,
132876048,0000013D,false,Rx,0,6,00,00,00,00,FF,00,00,00,
132876330,0000073D,false,Rx,0,8,0A,00,00,00,00,00,00,00,
132876781,00000401,false,Rx,0,8,0D,2A,15,8E,14,8E,1C,8E,
132877559,0000012A,false,Rx,0,8,0C,2A,15,8E,14,8E,15,8E,
132877839,0000076C,false,Rx,0,8,04,18,1B,00,05,00,04,00,
132878120,000007FF,false,Rx,0,8,01,59,45,49,02,04,16,00,
132878735,00000401,false,Rx,0,8,0E,2A,17,8E,1B,8E,19,8E,
132880251,00000232,false,Rx,0,8,4A,00,D0,09,CC,04,00,00,
132880457,0000012A,false,Rx,0,8,0D,2A,15,8E,14,8E,1C,8E,
132880655,000003B2,false,Rx,0,8,A0,0D,FA,FF,00,57,BB,06,
132880936,00000401,false,Rx,0,8,0F,2A,1C,8E,1C,8E,29,8E,
132881135,00000712,false,Rx,0,8,02,0A,B8,06,F4,06,00,00,
132882735,00000401,false,Rx,0,8,10,2A,1A,8E,1D,8E,20,8E,
132883595,0000012A,false,Rx,0,8,0E,2A,18,8E,1A,8E,19,8E,
132883794,0000020A,false,Rx,0,6,F6,15,09,82,18,01,00,00,
132883993,0000014A,false,Rx,0,8,02,0A,C2,06,FE,06,FF,7F,
132884275,0000074A,false,Rx,0,8,01,00,00,00,00,00,00,00,
132884394,0000022A,false,Rx,0,4,00,00,D9,15,00,00,00,00,
132884674,000003A1,false,Rx,0,8,03,00,00,00,00,00,50,E4,
132884874,00000401,false,Rx,0,8,11,2A,1A,8E,25,8E,1E,8E,
132885239,00000272,false,Rx,0,8,00,00,00,00,00,00,00,00,
132885445,000002B2,false,Rx,0,5,00,00,00,00,00,00,00,00,
132885562,00000432,false,Rx,0,2,10,00,00,00,00,00,00,00,
132886086,0000013D,false,Rx,0,6,00,00,00,00,FF,00,00,00,
132886286,0000073D,false,Rx,0,8,20,B7,AA,02,B8,00,00,00,
132886573,0000012A,false,Rx,0,8,0F,2A,1C,8E,1C,8E,29,8E,
132886773,00000401,false,Rx,0,8,12,2A,16,8E,1F,8E,11,8E,
132887794,0000076C,false,Rx,0,8,05,A6,54,36,45,DC,2E,00,
132888409,0000012A,false,Rx,0,8,10,2A,19,8E,1D,8E,20,8E,
132888770,00000401,false,Rx,0,8,13,2A,18,8E,1C,8E,18,8E,
132890203,00000232,false,Rx,0,8,4A,00,D0,09,CC,04,00,00,
132890409,00000152,false,Rx,0,8,01,2A,B1,C2,F7,C2,91,C3,
132890689,00000172,false,Rx,0,8,01,2A,D9,84,F5,84,1F,85,
132890889,000003B2,false,Rx,0,8,A1,0D,FA,FF,00,57,BB,06,
132891173,00000401,false,Rx,0,8,14,2A,14,8E,13,8E,1F,8E,
132891379,00000712,false,Rx,0,8,03,00,00,00,00,00,00,00,
132891577,0000012A,false,Rx,0,8,11,2A,1A,8E,24,8E,1E,8E,
132892762,00000401,false,Rx,0,8,15,2A,14,8E,11,8E,12,8E,
132893702,0000020A,false,Rx,0,6,F6,15,09,82,18,01,00,00,
132893900,0000022A,false,Rx,0,4,00,00,D9,15,00,00,00,00,
132894345,0000012A,false,Rx,0,8,12,2A,16,8E,1F,8E,12,8E,
132894715,00000401,false,Rx,0,8,16,2A,1D,8E,1C,8E,1D,8E,
132896073,0000013D,false,Rx,0,6,00,00,00,00,FF,00,00,00,
132896361,0000073D,false,Rx,0,8,41,00,81,E4,FF,00,80,04,
132896804,00000401,false,Rx,0,8,17,2A,1B,8E,1A,8E,1E,8E,
132897418,0000012A,false,Rx,0,8,13,2A,18,8E,1C,8E,18,8E,
132897860,0000076C,false,Rx,0,8,0A,17,A0,00,64,00,80,00,
132898739,00000401,false,Rx,0,8,18,2A,11,8E,0F,8E,10,8E,
132900255,00000232,false,Rx,0,8,4A,00,D3,09,CB,04,00,00,
132900462,000003B2,false,Rx,0,8,A1,0D,FA,FF,00,57,BB,06,
132900660,0000012A,false,Rx,0,8,14,2A,14,8E,12,8E,1F,8E,
132900860,00000284,false,Rx,0,5,10,00,00,00,00,00,00,00,
132901059,00000401,false,Rx,0,8,19,2A,0E,8E,0C,8E,0B,8E,
132901341,00000712,false,Rx,0,8,04,00,00,00,00,00,00,00,
132902454,0000012A,false,Rx,0,8,15,2A,14,8E,11,8E,12,8E,
132902733,00000401,false,Rx,0,8,1A,2A,12,8E,0D,8E,14,8E,
132903014,00000221,false,Rx,0,8,21,01,55,00,00,00,40,DA,
132903714,0000014A,false,Rx,0,8,03,00,00,00,00,00,00,00,
132903912,0000020A,false,Rx,0,6,F6,15,09,82,18,01,00,00,
132904029,0000022A,false,Rx,0,4,00,00,D9,15,00,00,00,00,
132904726,00000401,false,Rx,0,8,1B,2A,0E,8E,14,8E,11,8E,
132905415,0000012A,false,Rx,0,8,16,2A,1D,8E,1C,8E,1D,8E,
132906101,0000013D,false,Rx,0,6,00,00,00,00,FF,00,00,00,
132906303,0000073D,false,Rx,0,8,22,2D,00,00,00,00,00,00,
132906754,00000401,false,Rx,0,8,1C,2A,09,8E,01,8E,0B,8E,
132907777,0000076C,false,Rx,0,8,0B,02,00,D0,20,FF,0F,32,
132908471,0000012A,false,Rx,0,8,17,2A,1A,8E,1A,8E,1E,8E,
132908752,00000401,false,Rx,0,8,1D,2A,05,8E,00,8E,05,8E,
132910184,00000232,false,Rx,0,8,4A,00,CF,09,CC,04,00,00,
132910472,000003B2,false,Rx,0,8,A1,0D,FA,FF,00,57,BB,06,
132910670,00000712,false,Rx,0,8,05,00,00,00,00,00,00,00,
132910951,00000401,false,Rx,0,8,1E,2A,08,8E,05,8E,0E,8E,
132911485,0000012A,false,Rx,0,8,18,2A,11,8E,0F,8E,10,8E,
132912751,00000401,false,Rx,0,8,1F,2A,09,8E,0C,8E,0D,8E,
132913448,0000012A,false,Rx,0,8,19,2A,0E,8E,0B,8E,0C,8E,
132913647,0000020A,false,Rx,0,6,F6,15,09,82,18,01,00,00,
132913846,0000022A,false,Rx,0,4,00,00,D9,15,00,00,00,00,
132914787,00000401,false,Rx,0,8,20,00,00,00,00,00,00,00,
132945233,0000013D,false,Rx,0,6,00,00,00,00,FF,00,00,00,
132945320,0000073D,false,Rx,0,8,03,00,EF,18,00,00,00,00,
132945415,0000012A,false,Rx,0,8,1A,2A,12,8E,0D,8E,14,8E,
132945500,00000339,false,Rx,0,8,60,41,02,00,00,03,40,03,
132945586,00000401,false,Rx,0,8,21,00,00,00,00,00,00,00,
132945671,0000076C,false,Rx,0,8,0C,00,00,00,20,00,00,00,
132945757,00000545,false,Rx,0,8,1E,00,31,90,9B,B9,69,E6,
132945842,00000401,false,Rx,0,8,22,00,00,00,00,00,00,00,
132945928,0000012A,false,Rx,0,8,1B,2A,0E,8E,14,8E,12,8E,
132946045,00000232,false,Rx,0,8,4A,00,CF,09,CC,04,00,00,
132946130,00000152,false,Rx,0,8,02,0A,60,C3,B9,C3,00,00,
132946217,00000172,false,Rx,0,8,02,0A,EB,84,F8,84,00,00,
132946336,000003B2,false,Rx,0,8,A0,0D,FA,FF,00,57,BB,06,
132946429,00000401,false,Rx,0,8,23,00,00,00,00,00,00,00,
132946515,0000012A,false,Rx,0,8,1C,2A,08,8E,02,8E,0B,8E,
132946600,0000014A,false,Rx,0,8,04,00,00,00,00,00,00,00,
132946686,0000020A,false,Rx,0,6,F6,15,09,82,18,01,00,00,
132946771,0000074A,false,Rx,0,8,02,00,00,00,00,00,00,00,
132946857,0000022A,false,Rx,0,4,00,00,D9,15,00,00,00,00,
132946942,0000012A,false,Rx,0,8,1D,2A,06,8E,00,8E,06,8E,
132947027,0000013D,false,Rx,0,6,00,00,00,00,FF,00,00,00,
132947113,0000073D,false,Rx,0,8,04,00,00,00,00,00,00,00,
132947200,0000012A,false,Rx,0,8,1E,2A,08,8E,06,8E,0E,8E,
132947285,0000076C,false,Rx,0,8,0D,04,32,8F,BB,28,00,00,
132947410,000001F9,false,Rx,0,1,00,00,00,00,00,00,00,00,
132947495,00000232,false,Rx,0,8,4A,00,D3,09,CC,04,00,00,
132947580,000003B2,false,Rx,0,8,A0,0D,FA,FF,00,57,BB,06,
132947666,0000012A,false,Rx,0,8,1F,2A,09,8E,0C,8E,0C,8E,
132947783,0000012A,false,Rx,0,8,20,00,00,00,00,00,00,00,
132947869,0000020A,false,Rx,0,6,F6,15,09,82,18,01,00,00,
132947954,0000014A,false,Rx,0,8,05,00,00,00,00,00,00,00,
132948040,0000022A,false,Rx,0,4,00,00,D9,15,00,00,00,00,
132948125,000003A1,false,Rx,0,8,48,62,48,95,00,20,62,9A,
132948212,0000013D,false,Rx,0,6,00,00,00,00,FF,00,00,00,
132948298,0000073D,false,Rx,0,8,05,E7,AC,E6,AC,02,00,00,
132948391,0000012A,false,Rx,0,8,21,00,00,00,00,00,00,00,
132948477,0000076C,false,Rx,0,8,0E,45,AF,12,BA,02,00,00,
132948562,0000012A,false,Rx,0,8,22,00,00,00,00,00,00,00,
132948648,000002C4,false,Rx,0,8,20,00,00,D2,00,00,00,00,
132948733,00000232,false,Rx,0,8,4A,00,D2,09,CC,04,00,00,
132948819,00000204,false,Rx,0,8,01,00,00,FF,00,00,00,10,
132948904,000003B2,false,Rx,0,8,A1,0D,FA,FF,00,57,BB,06,
132948989,00000264,false,Rx,0,6,33,00,00,00,A0,00,00,00,
132949075,00000224,false,Rx,0,8,04,08,00,40,19,01,10,08,
132949164,000002B4,false,Rx,0,5,5B,2D,25,73,00,00,00,00,
132949250,0000012A,false,Rx,0,8,23,00,00,00,00,00,00,00,
132949335,000002A4,false,Rx,0,8,1D,9F,38,C7,53,5E,F4,29,
132949428,00000364,false,Rx,0,2,00,78,00,00,00,00,00,00,
132949513,000003A4,false,Rx,0,8,00,00,00,00,00,00,00,00,
132949599,0000020A,false,Rx,0,6,F6,15,09,82,18,01,00,00,
132949684,0000022A,false,Rx,0,4,00,00,D9,15,00,00,00,00,
132949802,0000012A,false,Rx,0,8,00,2A,1D,8E,19,8E,22,8E,
132949919,0000013D,false,Rx,0,6,00,00,00,00,FF,00,00,00,
132950004,0000073D,false,Rx,0,8,06,00,00,20,02,1F,00,00,
132950089,0000012A,false,Rx,0,8,01,2A,20,8E,1E,8E,17,8E,
132950209,0000076C,false,Rx,0,8,94,19,20,00,64,00,80,00,
132950295,0000078A,false,Rx,0,8,01,00,08,00,00,00,50,00,
132950414,0000024A,false,Rx,0,1,03,00,00,00,00,00,00,00,
132950499,00000682,false,Rx,0,8,00,00,00,40,04,17,30,0A,
132950616,0000012A,false,Rx,0,8,02,2A,1D,8E,1F,8E,1C,8E,
132950702,00000232,false,Rx,0,8,4A,00,D3,09,CC,04,00,00,
132950901,000003B2,false,Rx,0,8,A1,0D,FA,FF,00,57,BB,06,
132951101,00000401,false,Rx,0,8,00,2A,1D,8E,1A,8E,22,8E,
132951390,000007AA,false,Rx,0,8,07,FB,FF,FB,FF,F7,FF,00,
132951590,000003AA,false,Rx,0,8,00,00,00,00,00,00,00,00,
132952450,0000012A,false,Rx,0,8,03,2A,14,8E,1F,8E,24,8E,
132952730,00000221,false,Rx,0,8,20,41,01,0A,00,50,51,30,
132953010,00000401,false,Rx,0,8,01,2A,21,8E,1D,8E,16,8E,
132953462,0000014A,false,Rx,0,8,00,2A,CC,06,A4,06,B8,06,
132953661,0000020A,false,Rx,0,6,F6,15,09,82,18,01,00,00,
132953941,0000074A,false,Rx,0,8,00,00,00,00,00,00,00,00,
132954059,0000022A,false,Rx,0,4,00,00,D9,15,00,00,00,00,
132954754,00000401,false,Rx,0,8,02,2A,1C,8E,1F,8E,1C,8E,
132955446,0000012A,false,Rx,0,8,04,2A,14,8E,24,8E,26,8E,
132955888,0000041D,false,Rx,0,1,14,00,00,00,00,00,00,00,
132956170,0000021D,false,Rx,0,8,04,00,04,00,00,00,00,00,
132956378,0000043D,false,Rx,0,6,00,00,00,00,FF,00,00,00,
132956577,0000013D,false,Rx,0,6,00,00,00,00,FF,00,00,00,
132956775,0000025D,false,Rx,0,8,C7,48,01,B8,40,61,01,C0,
132957056,00000401,false,Rx,0,8,03,2A,13,8E,1E,8E,24,8E,
132957256,0000027D,false,Rx,0,8,00,00,00,00,00,00,00,00,
132957463,0000077D,false,Rx,0,3,11,00,00,00,00,00,00,00,
132957580,0000029D,false,Rx,0,4,00,00,00,20,00,00,00,00,
132957861,0000076C,false,Rx,0,8,15,01,00,D0,20,00,00,32,
132958060,000002BD,false,Rx,0,4,00,00,00,00,00,00,00,00,
132958180,000007DD,false,Rx,0,2,FF,00,00,00,00,00,00,00,
132958467,0000073D,false,Rx,0,8,07,00,00,00,00,00,00,00,
132958667,0000012A,false,Rx,0,8,05,2A,21,8E,20,8E,1C,8E,
132958866,00000401,false,Rx,0,8,04,2A,14,8E,25,8E,26,8E,
132960216,00000232,false,Rx,0,8,4A,00,D4,09,CD,04,00,00,
132960423,00000152,false,Rx,0,8,00,2A,D4,C3,70,C2,8F,C2,
132960704,00000172,false,Rx,0,8,00,2A,F2,84,EB,84,E4,84,
132960903,000003B2,false,Rx,0,8,A1,0D,FB,FF,00,57,BB,06,
132961187,00000401,false,Rx,0,8,05,2A,21,8E,20,8E,1C,8E,
132961393,00000712,false,Rx,0,8,00,2A,CC,06,AE,06,C2,06,
132961593,0000012A,false,Rx,0,8,06,2A,1C,8E,15,8E,1C,8E,
132962776,00000401,false,Rx,0,8,06,2A,1C,8E,15,8E,1C,8E,
132963472,0000012A,false,Rx,0,8,07,2A,1C,8E,1A,8E,21,8E,
132963672,0000020A,false,Rx,0,6,F6,15,09,82,18,01,00,00,
132963869,0000022A,false,Rx,0,4,00,00,D9,15,00,00,00,00,
132964728,00000401,false,Rx,0,8,07,2A,1B,8E,1A,8E,20,8E,
132966074,0000013D,false,Rx,0,6,00,00,00,00,FF,00,00,00,
132966363,0000073D,false,Rx,0,8,38,00,01,00,00,00,00,00,
132966563,0000012A,false,Rx,0,8,08,2A,1C,8E,21,8E,24,8E,
132966762,00000401,false,Rx,0,8,08,2A,1C,8E,21,8E,24,8E,
132967783,0000076C,false,Rx,0,8,16,00,00,00,20,00,00,00,
132968642,00000545,false,Rx,0,8,03,19,64,32,19,00,70,85,
132968841,00000401,false,Rx,0,8,09,2A,19,8E,25,8E,15,8E,
132969476,0000012A,false,Rx,0,8,09,2A,1A,8E,25,8E,16,8E,
132970251,00000232,false,Rx,0,8,4A,00,CF,09,CC,04,00,00,
132970458,000003B2,false,Rx,0,8,A1,0D,FA,FF,00,57,BB,06,
132970658,00000712,false,Rx,0,8,01,2A,F4,06,D6,06,B8,06,
132970938,00000401,false,Rx,0,8,0A,2A,16,8E,1D,8E,24,8E,
132971055,000002D1,false,Rx,0,2,7F,01,00,00,00,00,00,00,
132972415,0000012A,false,Rx,0,8,0A,2A,16,8E,1E,8E,24,8E,
132972777,00000401,false,Rx,0,8,0B,2A,10,8E,1C,8E,1D,8E,
132973557,0000014A,false,Rx,0,8,01,2A,F4,06,D6,06,B8,06,
132973756,0000020A,false,Rx,0,6,F6,15,09,82,18,01,00,00,
132973955,0000022A,false,Rx,0,4,00,00,D9,15,00,00,00,00,
132974731,00000401,false,Rx,0,8,0C,2A,14,8E,14,8E,14,8E,
132975421,0000012A,false,Rx,0,8,0B,2A,10,8E,1C,8E,1D,8E,
132976108,0000013D,false,Rx,0,6,00,00,00,00,FF,00,00,00,
132976309,0000073D,false,Rx,0,8,E9,9B,EF,18,B3,01,8F,D1,
132976760,00000401,false,Rx,0,8,0D,2A,15,8E,14,8E,1C,8E,
132977451,0000012A,false,Rx,0,8,0C,2A,15,8E,13,8E,14,8E,
132977732,00000405,false,Rx,0,8,10,00,00,00,00,35,59,4A,
132977931,0000076C,false,Rx,0,8,17,04,32,8F,BB,28,00,00,
132978293,000007FF,false,Rx,0,8,02,46,96,2C,DC,51,95,28,
132978744,00000401,false,Rx,0,8,0E,2A,17,8E,1C,8E,19,8E,
132980258,00000232,false,Rx,0,8,4A,00,D5,09,CD,04,00,00,
132980465,000003B2,false,Rx,0,8,A1,0D,FB,FF,00,57,BB,06,
132980663,0000012A,false,Rx,0,8,0D,2A,15,8E,14,8E,1C,8E,
132980944,00000401,false,Rx,0,8,0F,2A,1C,8E,1C,8E,29,8E,
132981143,00000712,false,Rx,0,8,02,0A,C2,06,F4,06,00,00,
132982742,00000401,false,Rx,0,8,10,2A,1A,8E,1D,8E,20,8E,
132983438,0000012A,false,Rx,0,8,0E,2A,17,8E,1B,8E,19,8E,
132983637,0000020A,false,Rx,0,6,F6,15,09,82,18,01,00,00,
132983918,0000014A,false,Rx,0,8,02,0A,B8,06,F4,06,FF,7F,
132984116,0000074A,false,Rx,0,8,01,00,00,00,00,00,00,00,
132984317,0000022A,false,Rx,0,4,00,00,D9,15,00,00,00,00,
132984767,00000401,false,Rx,0,8,11,2A,1A,8E,25,8E,1F,8E,
132985048,00000272,false,Rx,0,8,00,00,00,00,00,00,00,00,
132985249,000002B2,false,Rx,0,5,00,00,00,00,00,00,00,00,
132985456,000003A1,false,Rx,0,8,03,00,00,00,00,00,70,04,
132985573,00000432,false,Rx,0,2,12,00,00,00,00,00,00,00,
132986096,0000013D,false,Rx,0,6,00,00,00,00,FF,00,00,00,
132986299,0000073D,false,Rx,0,8,0A,00,00,00,00,00,00,00,
132986588,0000012A,false,Rx,0,8,0F,2A,1C,8E,1C,8E,29,8E,
132986787,00000401,false,Rx,0,8,12,2A,17,8E,20,8E,12,8E,
132987647,00000321,false,Rx,0,8,CC,35,A7,6F,02,6A,B0,57,
132987846,0000076C,false,Rx,0,8,18,49,AF,0E,BA,02,00,00,
132988461,0000012A,false,Rx,0,8,10,2A,1A,8E,1D,8E,20,8E,
132988742,00000401,false,Rx,0,8,13,2A,18,8E,1C,8E,18,8E,
132990255,00000232,false,Rx,0,8,4A,00,D5,09,CC,04,00,00,
132990463,00000152,false,Rx,0,8,01,2A,4C,C3,B0,C3,AC,C3,
132990661,00000172,false,Rx,0,8,01,2A,D9,84,F5,84,1F,85,
132990941,000003B2,false,Rx,0,8,A1,0D,FB,FF,00,57,BB,06,
132991141,00000401,false,Rx,0,8,14,2A,14,8E,13,8E,1F,8E,
132991341,00000712,false,Rx,0,8,03,00,00,00,00,00,00,00,
132991629,0000012A,false,Rx,0,8,11,2A,1A,8E,25,8E,1E,8E,
132992732,00000401,false,Rx,0,8,15,2A,14,8E,11,8E,12,8E,
132993510,0000020A,false,Rx,0,6,F6,15,09,82,18,01,00,00,
132993709,0000022A,false,Rx,0,4,00,00,D9,15,00,00,00,00,
132994403,0000012A,false,Rx,0,8,12,2A,16,8E,1F,8E,11,8E,
132994765,00000401,false,Rx,0,8,16,2A,1D,8E,1C,8E,1D,8E,
133025703,0000013D,false,Rx,0,6,00,00,00,00,FF,00,00,00,
133025789,0000073D,false,Rx,0,8,20,B7,AA,02,B8,00,00,00,
133025875,00000401,false,Rx,0,8,17,2A,1B,8E,1A,8E,1E,8E,
133025960,0000012A,false,Rx,0,8,13,2A,18,8E,1C,8E,18,8E,
133026078,0000076C,false,Rx,0,8,1E,16,20,00,64,00,40,00,
133026167,00000401,false,Rx,0,8,18,2A,11,8E,0F,8E,10,8E,
133026284,00000232,false,Rx,0,8,4A,00,D2,09,CC,04,00,00,
133026378,0000012A,false,Rx,0,8,14,2A,14,8E,13,8E,1F,8E,
133026463,000003B2,false,Rx,0,8,A1,0D,FA,FF,00,57,BB,06,
133026549,00000401,false,Rx,0,8,19,2A,0E,8E,0C,8E,0C,8E,
133026634,00000712,false,Rx,0,8,04,00,00,00,00,00,00,00,
133026720,0000012A,false,Rx,0,8,15,2A,14,8E,11,8E,12,8E,
133026805,00000221,false,Rx,0,8,21,01,55,00,00,00,60,FA,
133026891,00000401,false,Rx,0,8,1A,2A,12,8E,0D,8E,14,8E,
133026976,0000014A,false,Rx,0,8,03,00,00,00,00,00,00,00,
133027062,0000020A,false,Rx,0,6,F6,15,09,82,18,01,00,00,
133027147,0000022A,false,Rx,0,4,00,00,D9,15,00,00,00,00,
133027234,00000401,false,Rx,0,8,1B,2A,0F,8E,14,8E,11,8E,
133027320,0000012A,false,Rx,0,8,16,2A,1D,8E,1C,8E,1D,8E,
133027445,0000013D,false,Rx,0,6,00,00,00,00,FF,00,00,00,
133027530,0000073D,false,Rx,0,8,41,00,82,24,00,00,80,04,
133027616,00000401,false,Rx,0,8,1C,2A,08,8E,02,8E,0B,8E,
133027701,0000076C,false,Rx,0,8,1F,03,00,D0,20,00,00,32,
133027819,0000012A,false,Rx,0,8,17,2A,1B,8E,1A,8E,1E,8E,
133027905,00000401,false,Rx,0,8,1D,2A,06,8E,00,8E,06,8E,
133028022,00000232,false,Rx,0,8,4A,00,D4,09,CC,04,00,00,
133028107,000003B2,false,Rx,0,8,A1,0D,FA,FF,00,57,BB,06,
133028194,00000712,false,Rx,0,8,05,00,00,00,00,00,00,00,
133028280,00000401,false,Rx,0,8,1E,2A,09,8E,06,8E,0E,8E,
133028373,0000012A,false,Rx,0,8,18,2A,11,8E,0F,8E,10,8E,
133028459,00000401,false,Rx,0,8,1F,2A,09,8E,0C,8E,0C,8E,
133028544,0000012A,false,Rx,0,8,19,2A,0E,8E,0C,8E,0B,8E,
133028630,0000020A,false,Rx,0,6,F6,15,09,82,18,01,00,00,
133028715,0000022A,false,Rx,0,4,00,00,D9,15,00,00,00,00,
133028800,00000401,false,Rx,0,8,20,00,00,00,00,00,00,00,
133028886,0000013D,false,Rx,0,6,00,00,00,00,FF,00,00,00,
133028971,0000073D,false,Rx,0,8,22,2D,00,00,00,00,00,00,
133029057,0000012A,false,Rx,0,8,1A,2A,12,8E,0D,8E,14,8E,
133029142,00000339,false,Rx,0,8,60,41,02,00,00,03,40,03,
133029229,00000401,false,Rx,0,8,21,00,00,00,00,00,00,00,
133029315,0000076C,false,Rx,0,8,20,00,00,00,30,00,40,00,
133029408,00000545,false,Rx,0,8,1E,00,31,C0,9B,B8,89,35,
133029494,00000401,false,Rx,0,8,22,00,00,00,00,00,00,00,
133029579,0000012A,false,Rx,0,8,1B,2A,0E,8E,14,8E,11,8E,
133029665,00000232,false,Rx,0,8,4A,00,D6,09,CC,04,00,00,
133029750,00000152,false,Rx,0,8,02,0A,57,C3,B0,C3,00,00,
133029836,00000172,false,Rx,0,8,02,0A,ED,84,F9,84,00,00,
133029921,000003B2,false,Rx,0,8,A1,0D,FB,FF,00,57,BB,06,
133030007,00000401,false,Rx,0,8,23,00,00,00,00,00,00,00,
133030092,0000012A,false,Rx,0,8,1C,2A,09,8E,01,8E,0B,8E,
133030218,0000014A,false,Rx,0,8,04,00,00,00,00,00,00,00,
133030303,0000020A,false,Rx,0,6,F6,15,09,82,18,01,00,00,
133030428,0000074A,false,Rx,0,8,02,00,00,00,00,00,00,00,
133030514,0000022A,false,Rx,0,4,00,00,D9,15,00,00,00,00,
133030599,0000012A,false,Rx,0,8,1D,2A,05,8E,00,8E,05,8E,
133030717,0000013D,false,Rx,0,6,00,00,00,00,FF,00,00,00,
133030802,0000073D,false,Rx,0,8,03,00,EF,18,00,00,00,00,
133030887,0000012A,false,Rx,0,8,1E,2A,08,8E,05,8E,0E,8E,
133030973,0000076C,false,Rx,0,8,21,04,32,8F,BB,28,00,00,
133031058,000001F9,false,Rx,0,1,00,00,00,00,00,00,00,00,
133031143,00000232,false,Rx,0,8,4A,00,D3,09,CC,04,00,00,
133031231,000003B2,false,Rx,0,8,A1,0D,FB,FF,00,57,BB,06,
133031316,0000012A,false,Rx,0,8,1F,2A,09,8E,0C,8E,0D,8E,
133033492,0000012A,false,Rx,0,8,20,00,00,00,00,00,00,00,
133033692,0000020A,false,Rx,0,6,F6,15,09,82,18,01,00,00,
133033972,0000014A,false,Rx,0,8,05,00,00,00,00,00,00,00,
133034089,0000022A,false,Rx,0,4,00,00,D9,15,00,00,00,00,
133035278,000003A1,false,Rx,0,8,48,62,48,95,00,20,82,BA,
133036053,0000013D,false,Rx,0,6,00,00,00,00,FF,00,00,00,
133036336,0000073D,false,Rx,0,8,04,00,00,00,00,00,00,00,
133036624,0000012A,false,Rx,0,8,21,00,00,00,00,00,00,00,
133037808,0000076C,false,Rx,0,8,22,46,AF,12,BA,00,00,00,
133038424,0000012A,false,Rx,0,8,22,00,00,00,00,00,00,00,
133040014,000002C4,false,Rx,0,8,01,00,00,D2,00,00,00,00,
133040216,00000232,false,Rx,0,8,4A,00,CF,09,CC,04,00,00,
133040503,00000204,false,Rx,0,8,01,00,00,FF,00,00,00,10,
133040703,000003B2,false,Rx,0,8,A1,0D,FA,FF,00,57,BB,06,
133040902,00000264,false,Rx,0,6,34,00,00,00,A0,00,00,00,
133041186,00000224,false,Rx,0,8,04,08,00,40,19,01,10,08,
133041394,000002B4,false,Rx,0,5,5A,31,25,78,00,00,00,00,
133041593,0000012A,false,Rx,0,8,23,00,00,00,00,00,00,00,
133043516,0000020A,false,Rx,0,6,F6,15,09,82,18,01,00,00,
133043715,0000022A,false,Rx,0,4,00,00,D9,15,00,00,00,00,
133044411,0000012A,false,Rx,0,8,00,2A,1D,8E,1A,8E,23,8E,
133046082,0000013D,false,Rx,0,6,00,00,00,00,FF,00,00,00,
133046372,0000073D,false,Rx,0,8,05,EC,AC,E5,AC,02,00,00,
133047469,0000012A,false,Rx,0,8,01,2A,21,8E,1E,8E,17,8E,
133047831,0000076C,false,Rx,0,8,33,00,00,00,00,44,20,84,
133049675,0000076A,false,Rx,0,8,00,DE,8B,F7,02,00,00,00,
133049792,0000024A,false,Rx,0,1,03,00,00,00,00,00,00,00,
133050072,00000682,false,Rx,0,8,00,00,00,40,04,17,40,1A,
133050272,00000232,false,Rx,0,8,4A,00,CE,09,CC,04,00,00,
133050561,0000012A,false,Rx,0,8,02,2A,1D,8E,1F,8E,1C,8E,
133050760,000003B2,false,Rx,0,8,A2,0D,F9,FF,00,57,BB,06,
133050959,00000401,false,Rx,0,8,00,2A,1D,8E,1A,8E,22,8E,
133051240,0000077A,false,Rx,0,8,00,8E,0E,00,6A,0D,00,00,
133051448,000007AA,false,Rx,0,8,C0,EB,CE,F4,00,00,00,00,
133051728,0000078A,false,Rx,0,8,01,00,00,00,00,00,0C,13,
133052417,0000012A,false,Rx,0,8,03,2A,14,8E,1F,8E,24,8E,
133052779,00000401,false,Rx,0,8,01,2A,21,8E,1E,8E,17,8E,
133052979,00000221,false,Rx,0,8,20,41,01,0A,00,50,71,50,
133053595,0000014A,false,Rx,0,8,00,2A,CC,06,A4,06,B8,06,
133053794,0000020A,false,Rx,0,6,F6,15,09,82,18,01,00,00,
133053993,0000074A,false,Rx,0,8,00,00,00,00,00,00,00,00,
133054192,0000022A,false,Rx,0,4,00,00,D9,15,00,00,00,00,
133054805,00000401,false,Rx,0,8,02,2A,1C,8E,1F,8E,1C,8E,
133055413,0000012A,false,Rx,0,8,04,2A,14,8E,24,8E,26,8E,
133056017,0000053E,false,Rx,0,8,0A,01,0E,00,FC,00,08,00,
133056300,0000033D,false,Rx,0,8,1A,29,0A,BE,87,4A,FA,98,
133056425,0000041D,false,Rx,0,1,14,00,00,00,00,00,00,00,
133056624,0000037D,false,Rx,0,8,62,FF,62,FF,01,FC,17,00,
133056823,0000013D,false,Rx,0,6,00,00,00,00,FF,00,00,00,
133057104,0000021D,false,Rx,0,8,04,00,04,00,00,00,00,00,
133057305,00000401,false,Rx,0,8,03,2A,14,8E,1F,8E,25,8E,
133057512,0000025D,false,Rx,0,8,C7,48,01,B8,40,61,01,C0,
133057792,0000043D,false,Rx,0,6,00,00,00,00,FF,00,00,00,
133057991,0000027D,false,Rx,0,8,00,00,00,00,00,00,00,00,
133058273,0000075D,false,Rx,0,8,00,D3,49,C7,49,00,00,00,
133058480,0000012A,false,Rx,0,8,05,2A,21,8E,20,8E,1D,8E,
133058597,0000029D,false,Rx,0,4,00,00,00,20,00,00,00,00,
133058876,00000401,false,Rx,0,8,04,2A,14,8E,25,8E,26,8E,
133058993,000002BD,false,Rx,0,4,00,00,00,00,00,00,00,00,
133059275,0000076C,false,Rx,0,8,34,00,00,00,00,00,00,00,
133059393,0000077D,false,Rx,0,3,11,00,00,00,00,00,00,00,
133059592,000007DD,false,Rx,0,2,FF,00,00,00,00,00,00,00,
133059872,0000073D,false,Rx,0,8,06,00,00,60,02,2A,00,00,
133060236,00000232,false,Rx,0,8,4A,00,D2,09,CB,04,00,00,
133060443,00000152,false,Rx,0,8,00,2A,D4,C3,40,C3,95,C2,
133060724,00000172,false,Rx,0,8,00,2A,F2,84,EA,84,E4,84,
133060923,000003B2,false,Rx,0,8,A1,0D,FA,FF,00,57,BB,06,
133061121,00000401,false,Rx,0,8,05,2A,21,8E,20,8E,1C,8E,
133061411,00000712,false,Rx,0,8,00,2A,CC,06,AE,06,B8,06,
133061611,0000012A,false,Rx,0,8,06,2A,1C,8E,16,8E,1C,8E,
133062713,00000401,false,Rx,0,8,06,2A,1C,8E,15,8E,1D,8E,
133063492,0000012A,false,Rx,0,8,07,2A,1B,8E,1A,8E,20,8E,
133063691,0000020A,false,Rx,0,6,F6,15,09,82,18,01,00,00,
133063809,0000022A,false,Rx,0,4,00,00,D9,15,00,00,00,00,
133064748,00000401,false,Rx,0,8,07,2A,1C,8E,1A,8E,21,8E,
133066096,0000013D,false,Rx,0,6,00,00,00,00,FF,00,00,00,
133066299,0000073D,false,Rx,0,8,07,00,00,00,00,00,00,00,
133066588,0000012A,false,Rx,0,8,08,2A,1C,8E,21,8E,24,8E,
133066786,00000401,false,Rx,0,8,08,2A,1D,8E,20,8E,24,8E,
133067807,0000076C,false,Rx,0,8,35,2A,09,01,00,00,00,00,
133068748,00000401,false,Rx,0,8,09,2A,19,8E,25,8E,16,8E,
133069028,00000545,false,Rx,0,8,03,19,64,32,19,00,90,A5,
133069397,0000012A,false,Rx,0,8,09,2A,19,8E,25,8E,15,8E,
133070253,00000232,false,Rx,0,8,4A,00,D6,09,CB,04,00,00,
133070460,000003B2,false,Rx,0,8,A2,0D,FA,FF,00,57,BB,06,
133070660,00000712,false,Rx,0,8,01,2A,F4,06,D6,06,B8,06,
133070940,00000401,false,Rx,0,8,0A,2A,17,8E,1E,8E,24,8E,
133071057,000002D1,false,Rx,0,2,7F,01,00,00,00,00,00,00,
133072443,0000012A,false,Rx,0,8,0A,2A,16,8E,1D,8E,24,8E,
133072723,00000401,false,Rx,0,8,0B,2A,10,8E,1C,8E,1D,8E,
133073593,0000014A,false,Rx,0,8,01,2A,F4,06,D6,06,B8,06,
133073793,0000020A,false,Rx,0,6,F6,15,09,82,18,01,00,00,
133073910,0000022A,false,Rx,0,4,00,00,D9,15,00,00,00,00,
133074781,00000401,false,Rx,0,8,0C,2A,15,8E,14,8E,14,8E,
133075477,0000012A,false,Rx,0,8,0B,2A,10,8E,1C,8E,1D,8E,
133104879,0000013D,false,Rx,0,6,00,00,00,00,FF,00,00,00,
133104966,0000073D,false,Rx,0,8,38,00,01,00,00,00,00,00,
133105051,00000401,false,Rx,0,8,0D,2A,14,8E,14,8E,1C,8E,
133105137,0000012A,false,Rx,0,8,0C,2A,14,8E,14,8E,14,8E,
133105224,0000076C,false,Rx,0,8,64,05,03,4C,99,56,EB,0C,
133105309,000007FF,false,Rx,0,8,03,31,09,A9,60,42,00,11,
133105435,00000401,false,Rx,0,8,0E,2A,18,8E,1B,8E,19,8E,
133105520,00000232,false,Rx,0,8,4A,00,D7,09,CA,04,00,00,
133105605,0000012A,false,Rx,0,8,0D,2A,15,8E,14,8E,1C,8E,
133105691,000003B2,false,Rx,0,8,A2,0D,FB,FF,00,57,BB,06,
133105776,00000401,false,Rx,0,8,0F,2A,1C,8E,1C,8E,28,8E,
133105862,00000712,false,Rx,0,8,02,0A,B8,06,F4,06,00,00,
133105947,00000401,false,Rx,0,8,10,2A,1A,8E,1D,8E,20,8E,
133106065,0000012A,false,Rx,0,8,0E,2A,17,8E,1C,8E,19,8E,
133106151,0000020A,false,Rx,0,6,F6,15,09,82,18,01,00,00,
133106237,0000014A,false,Rx,0,8,02,0A,C2,06,F4,06,FF,7F,
133106363,0000074A,false,Rx,0,8,01,00,00,00,00,00,00,00,
133106448,0000022A,false,Rx,0,4,00,00,D9,15,00,00,00,00,
133106533,000003A1,false,Rx,0,8,03,00,00,00,00,00,90,24,
133106619,00000401,false,Rx,0,8,11,2A,1B,8E,25,8E,1E,8E,
133106737,00000272,false,Rx,0,8,00,00,00,00,00,00,00,00,
133106822,0000013D,false,Rx,0,6,00,00,00,00,FF,00,00,00,
133106907,000002B2,false,Rx,0,5,00,00,00,00,00,00,00,00,
133106993,0000012A,false,Rx,0,8,0F,2A,1C,8E,1C,8E,29,8E,
133107078,00000432,false,Rx,0,2,14,00,00,00,00,00,00,00,
133107167,00000401,false,Rx,0,8,12,2A,17,8E,20,8E,12,8E,
133107253,0000073D,false,Rx,0,8,B9,FF,EF,18,B3,01,8F,D1,
133107338,0000076C,false,Rx,0,8,66,E1,BD,0D,00,00,00,00,
133107432,0000012A,false,Rx,0,8,10,2A,1A,8E,1D,8E,20,8E,
133107517,00000401,false,Rx,0,8,13,2A,18,8E,1C,8E,17,8E,
133107603,00000232,false,Rx,0,8,4A,00,D4,09,CB,04,00,00,
133107688,00000152,false,Rx,0,8,01,2A,10,C3,A4,C3,F2,C3,
133107807,00000172,false,Rx,0,8,01,2A,D9,84,F5,84,1F,85,
133107892,000003B2,false,Rx,0,8,A2,0D,FA,FF,00,57,BB,06,
133107978,00000401,false,Rx,0,8,14,2A,14,8E,13,8E,1F,8E,
133108063,00000712,false,Rx,0,8,03,00,00,00,00,00,00,00,
133108149,0000012A,false,Rx,0,8,11,2A,1A,8E,25,8E,1F,8E,
133108235,00000401,false,Rx,0,8,15,2A,14,8E,11,8E,12,8E,
133108320,0000020A,false,Rx,0,6,F6,15,09,82,18,01,00,00,
133108446,0000022A,false,Rx,0,4,00,00,D9,15,00,00,00,00,
133108531,0000012A,false,Rx,0,8,12,2A,17,8E,20,8E,12,8E,
133108616,00000401,false,Rx,0,8,16,2A,1D,8E,1C,8E,1D,8E,
133108734,0000013D,false,Rx,0,6,00,00,00,00,FF,00,00,00,
133108819,0000073D,false,Rx,0,8,0A,00,00,00,00,00,00,00,
133108905,00000401,false,Rx,0,8,17,2A,1A,8E,1A,8E,1E,8E,
133108990,0000012A,false,Rx,0,8,13,2A,18,8E,1C,8E,18,8E,
133109076,0000076C,false,Rx,0,8,67,D8,10,A9,2B,B0,2B,00,
133109165,00000401,false,Rx,0,8,18,2A,11,8E,0F,8E,10,8E,
133109250,00000232,false,Rx,0,8,4A,00,D7,09,CB,04,00,00,
133109336,000003B2,false,Rx,0,8,A1,0D,FA,FF,00,57,BB,06,
133109430,0000012A,false,Rx,0,8,14,2A,14,8E,13,8E,1F,8E,
133109515,00000401,false,Rx,0,8,19,2A,0F,8E,0C,8E,0C,8E,
133109601,00000712,false,Rx,0,8,04,00,00,00,00,00,00,00,
133109686,0000012A,false,Rx,0,8,15,2A,14,8E,11,8E,12,8E,
133109772,00000221,false,Rx,0,8,21,01,55,00,00,00,80,1A,
133109857,00000401,false,Rx,0,8,1A,2A,13,8E,0D,8E,14,8E,
133109943,0000014A,false,Rx,0,8,03,00,00,00,00,00,00,00,
133110028,0000020A,false,Rx,0,6,F6,15,09,82,18,01,00,00,
133110113,0000022A,false,Rx,0,4,00,00,D9,15,00,00,00,00,
133110234,00000401,false,Rx,0,8,1B,2A,0E,8E,14,8E,11,8E,
133110320,0000012A,false,Rx,0,8,16,2A,1D,8E,1C,8E,1D,8E,
133110446,0000013D,false,Rx,0,6,00,00,00,00,FF,00,00,00,
133110531,0000073D,false,Rx,0,8,20,B7,AA,02,B8,00,00,00,
133110617,00000401,false,Rx,0,8,1C,2A,08,8E,02,8E,0B,8E,
133110735,0000076C,false,Rx,0,8,68,50,FF,AE,01,66,02,00,
133110820,0000012A,false,Rx,0,8,17,2A,1B,8E,1A,8E,1E,8E,
133110938,00000401,false,Rx,0,8,1D,2A,06,8E,00,8E,06,8E,
133111024,00000232,false,Rx,0,8,4A,00,D8,09,CC,04,00,00,
133111109,000003B2,false,Rx,0,8,A1,0D,FA,FF,00,57,BB,06,
133111196,00000712,false,Rx,0,8,05,00,00,00,00,00,00,00,
133111282,00000401,false,Rx,0,8,1E,2A,08,8E,06,8E,0E,8E,
133111489,0000012A,false,Rx,0,8,18,2A,11,8E,0F,8E,10,8E,
133112754,00000401,false,Rx,0,8,1F,2A,0A,8E,0C,8E,0D,8E,
133113452,0000012A,false,Rx,0,8,19,2A,0E,8E,0C,8E,0C,8E,
133113651,0000020A,false,Rx,0,6,F6,15,09,82,18,01,00,00,
133113850,0000022A,false,Rx,0,4,00,00,D9,15,00,00,00,00,
133114793,00000401,false,Rx,0,8,20,00,00,00,00,00,00,00,
133116058,0000013D,false,Rx,0,6,00,00,00,00,FF,00,00,00,
133116340,0000073D,false,Rx,0,8,31,00,81,E4,FF,00,80,04,
133116547,0000012A,false,Rx,0,8,1A,2A,12,8E,0D,8E,14,8E,
133116828,00000339,false,Rx,0,8,60,41,02,00,00,03,40,03,
133117027,00000401,false,Rx,0,8,21,00,00,00,00,00,00,00,
133117804,0000076C,false,Rx,0,8,69,01,90,01,08,00,9D,FF,
133118744,00000401,false,Rx,0,8,22,00,00,00,00,00,00,00,
133119024,00000545,false,Rx,0,8,1E,00,31,90,9B,B9,A9,26,
133119474,0000012A,false,Rx,0,8,1B,2A,0F,8E,14,8E,11,8E,
133120245,00000232,false,Rx,0,8,4A,00,DA,09,CC,04,00,00,
133120452,00000152,false,Rx,0,8,02,0A,A8,C2,8F,C3,00,00,
133120652,00000172,false,Rx,0,8,02,0A,ED,84,F8,84,00,00,
133120932,000003B2,false,Rx,0,8,A1,0D,FA,FF,00,57,BB,06,
133121131,00000401,false,Rx,0,8,23,00,00,00,00,00,00,00,
133122405,0000012A,false,Rx,0,8,1C,2A,08,8E,02,8E,0B,8E,
133123669,0000014A,false,Rx,0,8,04,00,00,00,00,00,00,00,
133123869,0000020A,false,Rx,0,6,F6,15,09,82,18,01,00,00,
133124068,0000074A,false,Rx,0,8,02,00,00,00,00,00,00,00,
133124268,0000022A,false,Rx,0,4,00,00,D9,15,00,00,00,00,
133125458,0000012A,false,Rx,0,8,1D,2A,06,8E,00,8E,06,8E,
133126062,0000013D,false,Rx,0,6,00,00,00,00,FF,00,00,00,
133126345,0000073D,false,Rx,0,8,22,2D,00,00,00,00,00,00,
133127457,0000012A,false,Rx,0,8,1E,2A,09,8E,06,8E,0E,8E,
133127819,0000076C,false,Rx,0,8,6A,6D,29,52,09,FF,FF,FF,
133128017,000001F9,false,Rx,0,1,00,00,00,00,00,00,00,00,
133130190,00000232,false,Rx,0,8,4A,00,D4,09,CC,04,00,00,
133130478,000003B2,false,Rx,0,8,A2,0D,FA,FF,00,57,BB,06,
133130678,0000012A,false,Rx,0,8,1F,2A,09,8E,0C,8E,0C,8E,
133133510,0000012A,false,Rx,0,8,20,00,00,00,00,00,00,00,
133133709,0000020A,false,Rx,0,6,F6,15,09,82,18,01,00,00,
133133908,0000014A,false,Rx,0,8,05,00,00,00,00,00,00,00,
133134106,0000022A,false,Rx,0,4,00,00,D9,15,00,00,00,00,
133135292,000003A1,false,Rx,0,8,48,62,48,95,00,20,A2,DA,
133136068,0000013D,false,Rx,0,6,00,00,00,00,FF,00,00,00,
133136349,0000073D,false,Rx,0,8,03,00,EF,18,00,00,00,00,
133136556,0000012A,false,Rx,0,8,21,00,00,00,00,00,00,00,
133137820,0000076C,false,Rx,0,8,6B,CD,06,00,00,00,00,00,
133138437,0000012A,false,Rx,0,8,22,00,00,00,00,00,00,00,
133139946,000002C4,false,Rx,0,8,02,00,00,D2,00,00,00,00,
133140229,00000204,false,Rx,0,8,01,00,00,FF,00,00,00,10,
133140436,00000232,false,Rx,0,8,4A,00,D4,09,CC,04,00,00,
133140636,00000264,false,Rx,0,6,34,00,00,00,A0,00,00,00,
133140916,000003B2,false,Rx,0,8,A1,0D,FB,FF,00,57,BB,06,
133141115,00000224,false,Rx,0,8,04,08,00,40,19,01,10,08,
133141315,000002B4,false,Rx,0,5,5A,31,25,74,00,00,00,00,
133141604,0000012A,false,Rx,0,8,23,00,00,00,00,00,00,00,
133143614,0000020A,false,Rx,0,6,F6,15,09,82,18,01,00,00,
133143731,0000022A,false,Rx,0,4,00,00,D9,15,00,00,00,00,
133144426,0000012A,false,Rx,0,8,00,2A,1D,8E,1A,8E,22,8E,
133146102,0000013D,false,Rx,0,6,00,00,00,00,FF,00,00,00,
133146392,0000073D,false,Rx,0,8,04,00,00,00,00,00,00,00,
133147407,0000012A,false,Rx,0,8,01,2A,21,8E,1D,8E,16,8E,
133147768,0000076C,false,Rx,0,8,6C,00,00,47,01,CD,10,00,
133149780,0000078A,false,Rx,0,8,01,00,01,00,00,00,07,0D,
133149898,0000024A,false,Rx,0,1,03,00,00,00,00,00,00,00,
133150096,00000682,false,Rx,0,8,00,00,00,40,04,17,50,2A,
133150389,00000232,false,Rx,0,8,4A,00,D5,09,CC,04,00,00,
133150588,0000012A,false,Rx,0,8,02,2A,1C,8E,1F,8E,1C,8E,
133150868,000003B2,false,Rx,0,8,A2,0D,FB,FF,00,57,BB,06,
133151067,00000401,false,Rx,0,8,00,2A,1D,8E,1A,8E,22,8E,
133151267,000007AA,false,Rx,0,8,01,A7,0D,A3,0D,02,00,00,
133152457,0000012A,false,Rx,0,8,03,2A,13,8E,1E,8E,24,8E,
133152738,00000401,false,Rx,0,8,01,2A,21,8E,1E,8E,17,8E,
133153017,00000221,false,Rx,0,8,20,41,01,0A,00,50,91,70,
133153632,0000014A,false,Rx,0,8,00,2A,CC,06,AE,06,C2,06,
133153832,0000020A,false,Rx,0,6,F6,15,09,82,18,01,00,00,
133154112,0000074A,false,Rx,0,8,00,00,00,00,00,00,00,00,
133154232,0000022A,false,Rx,0,4,00,00,D9,15,00,00,00,00,
133154764,00000401,false,Rx,0,8,02,2A,1C,8E,1F,8E,1D,8E,
133181935,0000012A,false,Rx,0,8,04,2A,14,8E,25,8E,26,8E,
133182021,0000041D,false,Rx,0,1,14,00,00,00,00,00,00,00,
133182106,0000021D,false,Rx,0,8,04,00,04,00,00,00,00,00,
133182194,0000043D,false,Rx,0,6,00,00,00,00,FF,00,00,00,
133182279,0000013D,false,Rx,0,6,00,00,00,00,FF,00,00,00,
133182373,0000025D,false,Rx,0,8,C7,48,01,B8,40,61,01,C0,
133182458,00000401,false,Rx,0,8,03,2A,14,8E,1F,8E,24,8E,
133182544,0000027D,false,Rx,0,8,00,00,00,00,00,00,00,00,
133182629,0000077D,false,Rx,0,3,11,00,00,00,00,00,00,00,
133182747,0000029D,false,Rx,0,4,00,00,00,20,00,00,00,00,
133182832,0000076C,false,Rx,0,8,6D,8B,06,C9,13,66,08,00,
133182918,000002BD,false,Rx,0,4,00,00,00,00,00,00,00,00,
133183003,000007DD,false,Rx,0,2,FF,00,00,00,00,00,00,00,
133183088,0000073D,false,Rx,0,8,05,EC,AC,E5,AC,02,00,00,
133183175,0000012A,false,Rx,0,8,05,2A,21,8E,20,8E,1C,8E,
133183260,00000401,false,Rx,0,8,04,2A,14,8E,25,8E,27,8E,
133183346,00000232,false,Rx,0,8,4A,00,D6,09,CB,04,00,00,
133183472,00000152,false,Rx,0,8,00,2A,CE,C3,3C,C3,A4,C2,
133183557,00000172,false,Rx,0,8,00,2A,F2,84,EB,84,E4,84,
133183675,000003B2,false,Rx,0,8,A2,0D,FA,FF,00,57,BB,06,
133183761,00000401,false,Rx,0,8,05,2A,22,8E,20,8E,1C,8E,
133183879,00000712,false,Rx,0,8,00,2A,CC,06,AE,06,B8,06,
133183964,0000012A,false,Rx,0,8,06,2A,1C,8E,15,8E,1D,8E,
133184050,00000401,false,Rx,0,8,06,2A,1C,8E,15,8E,1D,8E,
133184170,0000012A,false,Rx,0,8,07,2A,1C,8E,1A,8E,21,8E,
133184287,0000020A,false,Rx,0,6,F6,15,09,82,18,01,00,00,
133184380,0000022A,false,Rx,0,4,00,00,D9,15,00,00,00,00,
133184465,00000401,false,Rx,0,8,07,2A,1B,8E,1B,8E,20,8E,
133184550,0000013D,false,Rx,0,6,00,00,00,00,FF,00,00,00,
133184668,0000073D,false,Rx,0,8,06,00,00,70,02,27,00,00,
133184753,0000012A,false,Rx,0,8,08,2A,1D,8E,20,8E,24,8E,
133184871,00000401,false,Rx,0,8,08,2A,1C,8E,21,8E,24,8E,
133184957,0000076C,false,Rx,0,8,6E,36,03,00,00,00,00,00,
133185042,00000545,false,Rx,0,8,03,19,64,32,19,00,B0,C5,
133185164,00000401,false,Rx,0,8,09,2A,1A,8E,26,8E,16,8E,
133185250,0000012A,false,Rx,0,8,09,2A,19,8E,25,8E,16,8E,
133185376,00000232,false,Rx,0,8,4A,00,D3,09,CB,04,00,00,
133185493,000003B2,false,Rx,0,8,A2,0D,FA,FF,00,57,BB,06,
133185579,00000712,false,Rx,0,8,01,2A,F4,06,D6,06,B8,06,
133185664,000002D1,false,Rx,0,2,7F,01,00,00,00,00,00,00,
133185750,00000401,false,Rx,0,8,0A,2A,16,8E,1E,8E,24,8E,
133185835,0000012A,false,Rx,0,8,0A,2A,17,8E,1E,8E,24,8E,
133185920,00000401,false,Rx,0,8,0B,2A,10,8E,1C,8E,1D,8E,
133186006,0000014A,false,Rx,0,8,01,2A,F4,06,D6,06,B8,06,
133186124,0000020A,false,Rx,0,6,F6,15,09,82,18,01,00,00,
133186211,0000022A,false,Rx,0,4,00,00,D9,15,00,00,00,00,
133186328,00000401,false,Rx,0,8,0C,2A,15,8E,13,8E,14,8E,
133186422,0000012A,false,Rx,0,8,0B,2A,10,8E,1C,8E,1D,8E,
133186540,0000013D,false,Rx,0,6,00,00,00,00,FF,00,00,00,
133186625,0000073D,false,Rx,0,8,07,00,00,00,00,00,00,00,
133186711,00000401,false,Rx,0,8,0D,2A,15,8E,14,8E,1C,8E,
133186829,0000012A,false,Rx,0,8,0C,2A,15,8E,14,8E,14,8E,
133186915,0000076C,false,Rx,0,8,6F,57,36,CD,1C,CD,0C,00,
133187000,000007FF,false,Rx,0,8,04,53,56,18,5E,01,00,00,
133187086,00000401,false,Rx,0,8,0E,2A,17,8E,1B,8E,1A,8E,
133187173,00000232,false,Rx,0,8,4A,00,D4,09,CB,04,00,00,
133187258,000003B2,false,Rx,0,8,A2,0D,FA,FF,00,57,BB,06,
133187344,0000012A,false,Rx,0,8,0D,2A,14,8E,14,8E,1C,8E,
133187437,00000401,false,Rx,0,8,0F,2A,1C,8E,1C,8E,29,8E,
133187523,00000712,false,Rx,0,8,02,0A,C2,06,F4,06,00,00,
133187608,00000401,false,Rx,0,8,10,2A,19,8E,1D,8E,20,8E,
133187693,0000012A,false,Rx,0,8,0E,2A,18,8E,1B,8E,19,8E,
133187811,0000020A,false,Rx,0,6,F6,15,09,82,18,01,00,00,
133187896,0000014A,false,Rx,0,8,02,0A,B8,06,F4,06,FF,7F,
133187982,0000074A,false,Rx,0,8,01,00,00,00,00,00,00,00,
133188067,0000022A,false,Rx,0,4,00,00,D9,15,00,00,00,00,
133188153,000003A1,false,Rx,0,8,03,00,00,00,00,00,B0,44,
133188239,00000401,false,Rx,0,8,11,2A,1B,8E,25,8E,1E,8E,
133188324,00000272,false,Rx,0,8,00,00,00,00,00,00,00,00,
133188449,000002B2,false,Rx,0,5,00,00,00,00,00,00,00,00,
133188535,00000432,false,Rx,0,2,16,00,00,00,00,00,00,00,
133188620,0000013D,false,Rx,0,6,00,00,00,00,FF,00,00,00,
133188738,0000073D,false,Rx,0,8,38,00,01,00,00,00,00,00,
133188823,0000012A,false,Rx,0,8,0F,2A,1C,8E,1C,8E,28,8E,
133188909,00000401,false,Rx,0,8,12,2A,17,8E,20,8E,12,8E,
133188994,0000076C,false,Rx,0,8,70,D7,41,75,10,26,84,09,
133189080,0000012A,false,Rx,0,8,10,2A,1A,8E,1D,8E,20,8E,
133189167,00000401,false,Rx,0,8,13,2A,18,8E,1C,8E,18,8E,
133190224,00000232,false,Rx,0,8,4A,00,D5,09,CB,04,00,00,
133190431,00000152,false,Rx,0,8,01,2A,4B,C3,AC,C3,93,C3,
133190629,00000172,false,Rx,0,8,01,2A,D9,84,F5,84,1F,85,
133190910,000003B2,false,Rx,0,8,A2,0D,FA,FF,00,57,BB,06,
133191109,00000401,false,Rx,0,8,14,2A,14,8E,13,8E,1F,8E,
133191399,00000712,false,Rx,0,8,03,00,00,00,00,00,00,00,
133191599,0000012A,false,Rx,0,8,11,2A,1B,8E,25,8E,1E,8E,
133192700,00000401,false,Rx,0,8,15,2A,14,8E,12,8E,12,8E,
133193559,0000020A,false,Rx,0,6,F6,15,09,82,18,01,00,00,
133193758,0000022A,false,Rx,0,4,00,00,D9,15,00,00,00,00,
133194373,0000012A,false,Rx,0,8,12,2A,17,8E,20,8E,12,8E,
133194734,00000401,false,Rx,0,8,16,2A,1D,8E,1C,8E,1E,8E,
133196090,0000013D,false,Rx,0,6,00,00,00,00,FF,00,00,00,
133196290,0000073D,false,Rx,0,8,69,30,F0,18,06,03,8F,D1,
133196741,00000401,false,Rx,0,8,17,2A,1B,8E,1A,8E,1E,8E,
133197348,0000012A,false,Rx,0,8,13,2A,18,8E,1C,8E,17,8E,
133197797,0000076C,false,Rx,0,8,71,34,30,00,85,18,7B,00,
133198749,00000401,false,Rx,0,8,18,2A,11,8E,10,8E,10,8E,
133200176,00000232,false,Rx,0,8,4A,00,D6,09,CA,04,00,00,
133200464,000003B2,false,Rx,0,8,A2,0D,FA,FF,00,57,BB,06,
133200664,0000012A,false,Rx,0,8,14,2A,14,8E,13,8E,1F,8E,
133200862,00000401,false,Rx,0,8,19,2A,0E,8E,0C,8E,0C,8E,
133201143,00000712,false,Rx,0,8,04,00,00,00,00,00,00,00,
133201344,00000333,false,Rx,0,5,84,10,0B,06,03,00,00,00,
133202284,0000012A,false,Rx,0,8,15,2A,14,8E,11,8E,12,8E,
133202735,00000401,false,Rx,0,8,1A,2A,12,8E,0D,8E,14,8E,
133203015,00000221,false,Rx,0,8,21,01,55,00,00,00,A0,3A,
133203633,0000014A,false,Rx,0,8,03,00,00,00,00,00,00,00,
133203832,0000020A,false,Rx,0,6,F6,15,09,82,18,01,00,00,
133204031,0000022A,false,Rx,0,4,00,00,D9,15,00,00,00,00,
133204727,00000401,false,Rx,0,8,1B,2A,0E,8E,14,8E,12,8E,
133205504,0000012A,false,Rx,0,8,16,2A,1D,8E,1C,8E,1D,8E,
133206110,0000013D,false,Rx,0,6,00,00,00,00,FF,00,00,00,
133206310,0000073D,false,Rx,0,8,0A,00,00,00,00,00,00,00,
133206760,00000401,false,Rx,0,8,1C,2A,09,8E,02,8E,0C,8E,
133207783,0000076C,false,Rx,0,8,77,AE,00,A1,0D,11,0D,00,
133208309,0000012A,false,Rx,0,8,17,2A,1A,8E,1A,8E,1E,8E,
133208759,00000401,false,Rx,0,8,1D,2A,06,8E,00,8E,06,8E,
133210195,00000232,false,Rx,0,8,4A,00,D1,09,CA,04,00,00,
133210483,000003B2,false,Rx,0,8,A1,0D,FA,FF,00,57,BB,06,
133210682,00000712,false,Rx,0,8,05,00,00,00,00,00,00,00,
133210963,00000401,false,Rx,0,8,1E,2A,09,8E,05,8E,0D,8E,
133211578,0000012A,false,Rx,0,8,18,2A,11,8E,0F,8E,10,8E,
133212763,00000401,false,Rx,0,8,1F,2A,09,8E,0C,8E,0C,8E,
133213540,0000012A,false,Rx,0,8,19,2A,0F,8E,0C,8E,0C,8E,
133213739,0000020A,false,Rx,0,6,F6,15,09,82,18,01,00,00,
133213938,0000022A,false,Rx,0,4,00,00,D9,15,00,00,00,00,
133214798,00000401,false,Rx,0,8,20,00,00,00,00,00,00,00,
133216063,0000013D,false,Rx,0,6,00,00,00,00,FF,00,00,00,
133216345,0000073D,false,Rx,0,8,20,B7,AA,02,B8,00,00,00,
133216553,0000012A,false,Rx,0,8,1A,2A,13,8E,0D,8E,14,8E,
133216833,00000339,false,Rx,0,8,60,41,02,00,00,03,40,03,
133217032,00000401,false,Rx,0,8,21,00,00,00,00,00,00,00,
133217810,0000076C,false,Rx,0,8,78,9D,00,9C,CD,10,0B,00,
133218669,00000545,false,Rx,0,8,1E,00,31,80,9B,B8,C9,35,
133218868,00000401,false,Rx,0,8,22,00,00,00,00,00,00,00,
133219565,0000012A,false,Rx,0,8,1B,2A,0E,8E,14,8E,11,8E,
133220259,00000232,false,Rx,0,8,4A,00,D1,09,CA,04,00,00,
133220466,00000152,false,Rx,0,8,02,0A,5D,C3,BD,C3,00,00,
133220665,00000172,false,Rx,0,8,02,0A,ED,84,F8,84,00,00,
133220945,000003B2,false,Rx,0,8,A2,0D,FA,FF,00,57,BB,06,
133221143,00000401,false,Rx,0,8,23,00,00,00,00,00,00,00,
133222330,0000012A,false,Rx,0,8,1C,2A,08,8E,02,8E,0B,8E,
133223766,0000014A,false,Rx,0,8,04,00,00,00,00,00,00,00,
133223965,0000020A,false,Rx,0,6,F6,15,09,82,18,01,00,00,
133224167,0000074A,false,Rx,0,8,02,00,00,00,00,00,00,00,
133224374,0000022A,false,Rx,0,4,00,00,D9,15,00,00,00,00,
133225476,0000012A,false,Rx,0,8,1D,2A,06,8E,00,8E,06,8E,
133226081,0000013D,false,Rx,0,6,00,00,00,00,FF,00,00,00,
133226370,0000073D,false,Rx,0,8,31,00,81,04,00,00,80,04,
133227473,0000012A,false,Rx,0,8,1E,2A,08,8E,06,8E,0E,8E,
133227753,00000405,false,Rx,0,8,11,33,46,37,45,41,37,4C,
133227952,0000076C,false,Rx,0,8,79,06,05,FF,05,00,00,00,
133228314,000001F9,false,Rx,0,1,00,00,00,00,00,00,00,00,
133230243,00000232,false,Rx,0,8,4A,00,D0,09,CA,04,00,00,
133230450,0000012A,false,Rx,0,8,1F,2A,0A,8E,0C,8E,0D,8E,
133230649,000003B2,false,Rx,0,8,A1,0D,FA,FF,00,57,BB,06,
133356188,0000021D,false,Rx,0,8,04,00,04,00,00,00,00,00,
133356317,0000041D,false,Rx,0,1,14,00,00,00,00,00,00,00,
133356525,0000013D,false,Rx,0,6,00,00,00,00,FF,00,00,00,
133356805,0000025D,false,Rx,0,8,C7,48,01,B8,40,61,01,C0,
133357003,00000401,false,Rx,0,8,03,2A,14,8E,1F,8E,24,8E,
133357287,0000027D,false,Rx,0,8,00,00,00,00,00,00,00,00,
133357495,0000043D,false,Rx,0,6,00,00,00,00,FF,00,00,00,
133357611,0000029D,false,Rx,0,4,00,00,00,20,00,00,00,00,
133357892,0000076C,false,Rx,0,8,14,1A,20,00,64,00,80,00,
133358090,000002BD,false,Rx,0,4,00,00,00,00,00,00,00,00,
133358209,0000077D,false,Rx,0,3,11,00,00,00,00,00,00,00,
133358409,0000012A,false,Rx,0,8,05,2A,22,8E,20,8E,1C,8E,
133358526,000007DD,false,Rx,0,2,FF,00,00,00,00,00,00,00,
133358807,00000401,false,Rx,0,8,04,2A,14,8E,25,8E,27,8E,
133359005,0000073D,false,Rx,0,8,13,00,EF,18,00,00,00,00,
133360190,00000232,false,Rx,0,8,4A,00,D1,09,CB,04,00,00,
133360478,00000152,false,Rx,0,8,00,2A,68,C3,06,C3,50,C2,
133360678,00000172,false,Rx,0,8,00,2A,F2,84,EB,84,E4,84,
133360877,000003B2,false,Rx,0,8,A1,0D,FB,FF,00,57,BB,06,
133361159,00000401,false,Rx,0,8,05,2A,22,8E,20,8E,1C,8E,
133361365,00000712,false,Rx,0,8,00,2A,D6,06,A4,06,B8,06,
133361564,0000012A,false,Rx,0,8,06,2A,1C,8E,15,8E,1C,8E,
133362748,00000401,false,Rx,0,8,06,2A,1C,8E,16,8E,1C,8E,
133363444,0000012A,false,Rx,0,8,07,2A,1C,8E,1B,8E,21,8E,
133363643,0000020A,false,Rx,0,6,F6,15,09,82,18,01,00,00,
133363842,0000022A,false,Rx,0,4,00,00,D9,15,00,00,00,00,
133364783,00000401,false,Rx,0,8,07,2A,1C,8E,1B,8E,20,8E,
133366129,0000013D,false,Rx,0,6,00,00,00,00,FF,00,00,00,
133366330,0000073D,false,Rx,0,8,04,00,00,00,00,00,00,00,
133366619,0000012A,false,Rx,0,8,08,2A,1D,8E,22,8E,25,8E,
133366818,00000401,false,Rx,0,8,08,2A,1C,8E,21,8E,24,8E,
133367759,0000076C,false,Rx,0,8,15,01,00,D0,20,00,00,32,
133368620,00000545,false,Rx,0,8,03,19,64,32,19,00,F0,05,
133368818,00000401,false,Rx,0,8,09,2A,19,8E,26,8E,16,8E,
133369433,0000012A,false,Rx,0,8,09,2A,1A,8E,26,8E,16,8E,
133370206,00000232,false,Rx,0,8,4A,00,D2,09,CB,04,00,00,
133370412,000003B2,false,Rx,0,8,A0,0D,FA,FF,00,57,BB,06,
133370693,00000712,false,Rx,0,8,01,2A,F4,06,D6,06,AE,06,
133370892,00000401,false,Rx,0,8,0A,2A,16,8E,1E,8E,24,8E,
133371009,000002D1,false,Rx,0,2,7F,01,00,00,00,00,00,00,
133372647,0000012A,false,Rx,0,8,0A,2A,16,8E,1E,8E,24,8E,
133372765,00000401,false,Rx,0,8,0B,2A,10,8E,1D,8E,1D,8E,
133373565,0000014A,false,Rx,0,8,01,2A,F4,06,D6,06,B8,06,
133373764,0000020A,false,Rx,0,6,F6,15,09,82,18,01,00,00,
133373963,0000022A,false,Rx,0,4,00,00,D9,15,00,00,00,00,
133374741,00000401,false,Rx,0,8,0C,2A,15,8E,14,8E,14,8E,
133375436,0000012A,false,Rx,0,8,0B,2A,10,8E,1D,8E,1D,8E,
133376122,0000013D,false,Rx,0,6,00,00,00,00,FF,00,00,00,
133376323,0000073D,false,Rx,0,8,05,D8,AC,E4,AC,02,00,00,
133376773,00000401,false,Rx,0,8,0D,2A,15,8E,14,8E,1C,8E,
133377387,0000012A,false,Rx,0,8,0C,2A,15,8E,14,8E,15,8E,
133377748,0000076C,false,Rx,0,8,16,00,00,00,20,00,00,00,
133378110,000007FF,false,Rx,0,8,02,46,96,2C,DC,51,95,28,
133378755,00000401,false,Rx,0,8,0E,2A,17,8E,1B,8E,19,8E,
133380193,00000232,false,Rx,0,8,4A,00,D5,09,CB,04,00,00,
133380399,000003B2,false,Rx,0,8,A0,0D,FA,FF,00,57,BB,06,
133380679,0000012A,false,Rx,0,8,0D,2A,15,8E,14,8E,1C,8E,
133380878,00000401,false,Rx,0,8,0F,2A,1C,8E,1C,8E,28,8E,
133381161,00000712,false,Rx,0,8,02,0A,C2,06,FE,06,00,00,
133382759,00000401,false,Rx,0,8,10,2A,19,8E,1D,8E,20,8E,
133383458,0000012A,false,Rx,0,8,0E,2A,17,8E,1C,8E,19,8E,
133383656,0000020A,false,Rx,0,6,F6,15,09,82,18,01,00,00,
133383855,0000014A,false,Rx,0,8,02,0A,C2,06,F4,06,FF,7F,
133384136,0000074A,false,Rx,0,8,01,00,00,00,00,00,00,00,
133384336,0000022A,false,Rx,0,4,00,00,D9,15,00,00,00,00,
133384624,000003A1,false,Rx,0,8,03,00,00,00,00,00,F0,84,
133384904,00000272,false,Rx,0,8,00,00,00,00,00,00,00,00,
133385103,000002B2,false,Rx,0,5,00,00,00,00,00,00,00,00,
133385305,00000401,false,Rx,0,8,11,2A,1B,8E,24,8E,1E,8E,
133385431,00000432,false,Rx,0,2,1A,00,00,00,00,00,00,00,
133386118,0000013D,false,Rx,0,6,00,00,00,00,FF,00,00,00,
133386318,0000073D,false,Rx,0,8,06,00,00,80,02,23,00,00,
133386607,0000012A,false,Rx,0,8,0F,2A,1C,8E,1C,8E,28,8E,
133386806,00000401,false,Rx,0,8,12,2A,17,8E,20,8E,12,8E,
133387746,0000076C,false,Rx,0,8,17,04,32,8F,BB,28,00,00,
133388436,0000012A,false,Rx,0,8,10,2A,19,8E,1D,8E,20,8E,
133388717,00000401,false,Rx,0,8,13,2A,18,8E,1C,8E,18,8E,
133390227,00000232,false,Rx,0,8,4A,00,D6,09,CB,04,00,00,
133390434,00000152,false,Rx,0,8,01,2A,56,C3,A9,C3,89,C3,
133390632,00000172,false,Rx,0,8,01,2A,D9,84,F5,84,20,85,
133390913,000003B2,false,Rx,0,8,A0,0D,FA,FF,00,57,BB,06,
133391112,00000401,false,Rx,0,8,14,2A,14,8E,13,8E,1F,8E,
133391402,00000712,false,Rx,0,8,03,00,00,00,00,00,00,00,
133391602,0000012A,false,Rx,0,8,11,2A,1B,8E,25,8E,1F,8E,
133392706,00000401,false,Rx,0,8,15,2A,14,8E,11,8E,12,8E,
133393483,0000020A,false,Rx,0,6,F6,15,09,82,18,01,00,00,
133393681,0000022A,false,Rx,0,4,00,00,D9,15,00,00,00,00,
133394457,0000012A,false,Rx,0,8,12,2A,16,8E,1F,8E,12,8E,
133394737,00000401,false,Rx,0,8,16,2A,1D,8E,1C,8E,1E,8E,
133396094,0000013D,false,Rx,0,6,00,00,00,00,FF,00,00,00,
133396386,0000073D,false,Rx,0,8,07,00,00,00,00,00,00,00,
133396748,00000401,false,Rx,0,8,17,2A,1A,8E,1A,8E,1E,8E,
133397444,0000012A,false,Rx,0,8,13,2A,18,8E,1C,8E,18,8E,
133397724,0000076C,false,Rx,0,8,18,47,AF,10,BA,02,00,00,
133398714,00000401,false,Rx,0,8,18,2A,11,8E,10,8E,10,8E,
133400223,00000232,false,Rx,0,8,4A,00,D4,09,CD,04,00,00,
133400424,0000012A,false,Rx,0,8,14,2A,14,8E,13,8E,1F,8E,
133400704,000003B2,false,Rx,0,8,A0,0D,FB,FF,00,57,BB,06,
133400821,00000284,false,Rx,0,5,10,00,00,00,00,00,00,00,
133401101,00000401,false,Rx,0,8,19,2A,0F,8E,0C,8E,0C,8E,
133401302,00000712,false,Rx,0,8,04,00,00,00,00,00,00,00,
133402411,0000012A,false,Rx,0,8,15,2A,14,8E,11,8E,12,8E,
133402691,00000221,false,Rx,0,8,21,01,55,00,00,00,E0,7A,
133402891,00000401,false,Rx,0,8,1A,2A,12,8E,0E,8E,14,8E,
133403587,0000014A,false,Rx,0,8,03,00,00,00,00,00,00,00,
133403787,0000020A,false,Rx,0,6,F6,15,09,82,18,01,00,00,
133403985,0000022A,false,Rx,0,4,00,00,D9,15,00,00,00,00,
133404762,00000401,false,Rx,0,8,1B,2A,0E,8E,14,8E,12,8E,
133405449,0000012A,false,Rx,0,8,16,2A,1D,8E,1C,8E,1D,8E,
133406144,0000013D,false,Rx,0,6,00,00,00,00,FF,00,00,00,
133425956,0000073D,false,Rx,0,8,38,00,01,00,00,00,00,00,
133426075,00000401,false,Rx,0,8,1C,2A,09,8E,02,8E,0C,8E,
133426164,0000076C,false,Rx,0,8,1E,15,20,00,64,00,40,00,
133426250,0000012A,false,Rx,0,8,17,2A,1A,8E,1A,8E,1E,8E,
133426375,00000401,false,Rx,0,8,1D,2A,06,8E,00,8E,05,8E,
133426461,00000232,false,Rx,0,8,4A,00,D1,09,CC,04,00,00,
133426546,000003B2,false,Rx,0,8,A0,0D,FA,FF,00,57,BB,06,
133426632,00000712,false,Rx,0,8,05,00,00,00,00,00,00,00,
133426717,00000401,false,Rx,0,8,1E,2A,09,8E,05,8E,0E,8E,
133426803,0000012A,false,Rx,0,8,18,2A,11,8E,0F,8E,10,8E,
133426888,00000401,false,Rx,0,8,1F,2A,09,8E,0B,8E,0D,8E,
133426974,0000012A,false,Rx,0,8,19,2A,0E,8E,0B,8E,0B,8E,
133427059,0000020A,false,Rx,0,6,F6,15,09,82,18,01,00,00,
133427144,0000022A,false,Rx,0,4,00,00,D9,15,00,00,00,00,
133427231,00000401,false,Rx,0,8,20,00,00,00,00,00,00,00,
133427317,0000013D,false,Rx,0,6,00,00,00,00,FF,00,00,00,
133427442,0000073D,false,Rx,0,8,D9,27,F0,18,06,03,8F,D1,
133427527,0000012A,false,Rx,0,8,1A,2A,12,8E,0D,8E,14,8E,
133427613,00000339,false,Rx,0,8,60,41,02,00,00,03,40,03,
133427698,00000401,false,Rx,0,8,21,00,00,00,00,00,00,00,
133427815,0000076C,false,Rx,0,8,1F,03,00,D0,20,00,00,32,
133427901,00000401,false,Rx,0,8,22,00,00,00,00,00,00,00,
133428018,00000545,false,Rx,0,8,1E,00,31,70,9B,B7,09,64,
133428103,0000012A,false,Rx,0,8,1B,2A,0E,8E,14,8E,12,8E,
133428192,00000232,false,Rx,0,8,4A,00,D3,09,CC,04,00,00,
133428277,00000152,false,Rx,0,8,02,0A,03,C3,BA,C3,00,00,
133428371,00000172,false,Rx,0,8,02,0A,ED,84,F8,84,00,00,
133428456,000003B2,false,Rx,0,8,A0,0D,FB,FF,00,57,BB,06,
133428542,00000401,false,Rx,0,8,23,00,00,00,00,00,00,00,
133428627,0000012A,false,Rx,0,8,1C,2A,08,8E,02,8E,0C,8E,
133428713,0000014A,false,Rx,0,8,04,00,00,00,00,00,00,00,
133428798,0000020A,false,Rx,0,6,F6,15,09,82,18,01,00,00,
133428883,0000074A,false,Rx,0,8,02,00,00,00,00,00,00,00,
133428969,0000022A,false,Rx,0,4,00,00,D9,15,00,00,00,00,
133429054,0000012A,false,Rx,0,8,1D,2A,05,8E,00,8E,06,8E,
133429140,0000013D,false,Rx,0,6,00,00,00,00,FF,00,00,00,
133429227,0000073D,false,Rx,0,8,0A,00,00,00,00,00,00,00,
133429312,0000012A,false,Rx,0,8,1E,2A,08,8E,05,8E,0D,8E,
133429405,0000076C,false,Rx,0,8,20,00,00,00,30,00,40,00,
133429491,000001F9,false,Rx,0,1,00,00,00,00,00,00,00,00,
133430183,00000232,false,Rx,0,8,4A,00,D4,09,CC,04,00,00,
133430405,0000012A,false,Rx,0,8,1F,2A,09,8E,0B,8E,0C,8E,
133430686,000003B2,false,Rx,0,8,A1,0D,FB,FF,00,57,BB,06,
133433516,0000012A,false,Rx,0,8,20,00,00,00,00,00,00,00,
133433715,0000020A,false,Rx,0,6,F6,15,09,82,18,01,00,00,
133433995,0000014A,false,Rx,0,8,05,00,00,00,00,00,00,00,
133434112,0000022A,false,Rx,0,4,00,00,D9,15,00,00,00,00,
133435051,000003A1,false,Rx,0,8,48,62,48,95,00,20,02,3A,
133436072,0000013D,false,Rx,0,6,00,00,00,00,FF,00,00,00,
133436361,0000073D,false,Rx,0,8,20,B7,A9,02,B8,00,00,00,
133436560,0000012A,false,Rx,0,8,21,00,00,00,00,00,00,00,
133437745,0000076C,false,Rx,0,8,21,04,32,8F,BB,28,00,00,
133438439,0000012A,false,Rx,0,8,22,00,00,00,00,00,00,00,
133439963,000002C4,false,Rx,0,8,25,22,00,00,00,00,00,20,
133440178,00000204,false,Rx,0,8,01,00,00,FF,00,00,00,10,
133440465,00000232,false,Rx,0,8,4A,00,D6,09,CC,04,00,00,
133440663,00000264,false,Rx,0,6,34,00,00,00,A0,00,00,00,
133440863,000003B2,false,Rx,0,8,A1,0D,FA,FF,00,57,BB,06,
133441062,00000224,false,Rx,0,8,04,08,00,40,19,01,10,08,
133441262,000002B4,false,Rx,0,5,5A,31,25,73,00,00,00,00,
133441551,0000012A,false,Rx,0,8,23,00,00,00,00,00,00,00,
133443556,0000020A,false,Rx,0,6,F6,15,09,82,18,01,00,00,
133443754,0000022A,false,Rx,0,4,00,00,D9,15,00,00,00,00,
133444445,0000012A,false,Rx,0,8,00,2A,1D,8E,1A,8E,22,8E,
133446119,0000013D,false,Rx,0,6,00,00,00,00,FF,00,00,00,
133446320,0000073D,false,Rx,0,8,31,00,81,F4,FF,00,80,04,
133447425,0000012A,false,Rx,0,8,01,2A,21,8E,1E,8E,17,8E,
133447787,0000076C,false,Rx,0,8,22,49,AF,10,BA,00,00,00,
133449795,0000078A,false,Rx,0,8,01,00,04,00,00,00,5E,06,
133449912,0000024A,false,Rx,0,1,03,00,00,00,00,00,00,00,
133450110,00000682,false,Rx,0,8,00,00,00,40,04,17,80,5A,
133450400,00000232,false,Rx,0,8,4A,00,D7,09,CC,04,00,00,
133450600,0000012A,false,Rx,0,8,02,2A,1D,8E,1F,8E,1D,8E,
133450799,000003B2,false,Rx,0,8,A1,0D,FB,FF,00,57,BB,06,
133451080,00000401,false,Rx,0,8,00,2A,1D,8E,1A,8E,22,8E,
133451280,000007AA,false,Rx,0,8,03,96,FA,3E,08,03,00,00,
133451487,00000353,false,Rx,0,8,5B,0F,39,80,15,0E,ED,F0,
133452420,0000012A,false,Rx,0,8,03,2A,14,8E,1F,8E,25,8E,
133452618,00000221,false,Rx,0,8,20,41,01,0A,00,50,F1,D0,
133452899,00000401,false,Rx,0,8,01,2A,21,8E,1E,8E,17,8E,
133453595,0000014A,false,Rx,0,8,00,2A,D6,06,AE,06,B8,06,
133453794,0000020A,false,Rx,0,6,F6,15,09,82,18,01,00,00,
133454075,0000074A,false,Rx,0,8,00,00,00,00,00,00,00,00,
133454278,0000022A,false,Rx,0,4,00,00,D9,15,00,00,00,00,
133454484,000003D2,false,Rx,0,8,D8,96,35,00,A6,2A,38,00,
133454684,00000732,false,Rx,0,6,B1,05,E0,0D,06,02,00,00,
133454883,00000401,false,Rx,0,8,02,2A,1D,8E,20,8E,1C,8E,
133455410,0000012A,false,Rx,0,8,04,2A,14,8E,25,8E,26,8E,
133456097,0000075D,false,Rx,0,8,42,48,03,20,2D,00,00,00,
133456300,0000021D,false,Rx,0,8,04,00,04,00,00,00,00,00,
133456507,0000013D,false,Rx,0,6,00,00,00,00,FF,00,00,00,
133456787,0000025D,false,Rx,0,8,C7,48,01,B8,40,61,01,C0,
133456986,00000401,false,Rx,0,8,03,2A,14,8E,20,8E,24,8E,
133457268,0000027D,false,Rx,0,8,00,00,00,00,00,00,00,00,
133457394,0000041D,false,Rx,0,1,14,00,00,00,00,00,00,00,
133457511,0000029D,false,Rx,0,4,00,00,00,20,00,00,00,00,
133457710,0000043D,false,Rx,0,6,00,00,00,00,FF,00,00,00,
133457909,000002BD,false,Rx,0,4,00,00,00,00,00,00,00,00,
133458192,0000076C,false,Rx,0,8,33,00,00,00,00,44,20,84,
133458309,0000077D,false,Rx,0,3,11,00,00,00,00,00,00,00,
133458516,0000012A,false,Rx,0,8,05,2A,22,8E,20,8E,1C,8E,
133458633,000007DD,false,Rx,0,2,FF,00,00,00,00,00,00,00,
133458914,00000401,false,Rx,0,8,04,2A,14,8E,25,8E,26,8E,
133459113,0000073D,false,Rx,0,8,22,2D,00,00,00,00,00,00,
133460223,00000232,false,Rx,0,8,4A,00,D3,09,CC,04,00,00,
133460430,00000152,false,Rx,0,8,00,2A,D4,C3,3A,C3,EA,C1,
133460629,00000172,false,Rx,0,8,00,2A,F2,84,EB,84,E4,84,
133460909,000003B2,false,Rx,0,8,A1,0D,FB,FF,00,57,BB,06,
133461109,00000401,false,Rx,0,8,05,2A,21,8E,20,8E,1D,8E,
133461399,00000712,false,Rx,0,8,00,2A,CC,06,B8,06,B8,06,
133461599,0000012A,false,Rx,0,8,06,2A,1C,8E,15,8E,1C,8E,
133462701,00000401,false,Rx,0,8,06,2A,1C,8E,15,8E,1C,8E,
133463478,0000012A,false,Rx,0,8,07,2A,1C,8E,1B,8E,21,8E,
133463677,0000020A,false,Rx,0,6,F6,15,09,82,18,01,00,00,
133463795,0000022A,false,Rx,0,4,00,00,D9,15,00,00,00,00,
133464734,00000401,false,Rx,0,8,07,2A,1B,8E,1B,8E,21,8E,
133466080,0000013D,false,Rx,0,6,00,00,00,00,FF,00,00,00,
133466370,0000073D,false,Rx,0,8,13,00,EF,18,00,00,00,00,
133466570,0000012A,false,Rx,0,8,08,2A,1D,8E,22,8E,25,8E,
133466850,00000401,false,Rx,0,8,08,2A,1D,8E,21,8E,24,8E,
133467793,0000076C,false,Rx,0,8,34,00,00,00,00,00,00,00,
133468734,00000401,false,Rx,0,8,09,2A,19,8E,25,8E,17,8E,
133469095,00000545,false,Rx,0,8,03,19,64,32,19,00,10,25,
133469461,0000012A,false,Rx,0,8,09,2A,1A,8E,26,8E,16,8E,
133470234,00000232,false,Rx,0,8,4A,00,D4,09,CC,04,00,00,
133470442,000003B2,false,Rx,0,8,A1,0D,FA,FF,00,57,BB,06,
133470559,000002D1,false,Rx,0,2,7F,01,00,00,00,00,00,00,
133470838,00000401,false,Rx,0,8,0A,2A,16,8E,1E,8E,24,8E,
133471038,00000712,false,Rx,0,8,01,2A,EA,06,D6,06,B8,06,
133472394,0000012A,false,Rx,0,8,0A,2A,16,8E,1E,8E,24,8E,
133472756,00000401,false,Rx,0,8,0B,2A,10,8E,1C,8E,1D,8E,
133473612,0000014A,false,Rx,0,8,01,2A,F4,06,D6,06,AE,06,
133473811,0000020A,false,Rx,0,6,F6,15,09,82,18,01,00,00,
133474009,0000022A,false,Rx,0,4,00,00,D9,15,00,00,00,00,
133474708,00000401,false,Rx,0,8,0C,2A,15,8E,14,8E,14,8E,
133475402,0000012A,false,Rx,0,8,0B,2A,10,8E,1D,8E,1D,8E,
133500883,0000013D,false,Rx,0,6,00,00,00,00,FF,00,00,00,
133500970,0000073D,false,Rx,0,8,04,00,00,00,00,00,00,00,
133501055,00000401,false,Rx,0,8,0D,2A,15,8E,14,8E,1C,8E,
133501175,0000012A,false,Rx,0,8,0C,2A,15,8E,14,8E,14,8E,
133501260,0000076C,false,Rx,0,8,35,2A,09,01,00,00,00,00,
133501347,00000559,false,Rx,0,6,00,00,00,00,00,00,00,00,
133501440,00000405,false,Rx,0,8,12,46,35,39,34,36,39,34,
133501526,00000401,false,Rx,0,8,0E,2A,18,8E,1B,8E,1A,8E,
133501611,000007FF,false,Rx,0,8,03,31,09,A9,60,42,00,11,
133501697,00000232,false,Rx,0,8,4A,00,D3,09,CB,04,00,00,
133501782,000003B2,false,Rx,0,8,A2,0D,FA,FF,00,57,BB,06,
133501868,0000012A,false,Rx,0,8,0D,2A,15,8E,14,8E,1C,8E,
133501953,00000401,false,Rx,0,8,0F,2A,1C,8E,1C,8E,28,8E,
133502039,00000712,false,Rx,0,8,02,0A,C2,06,F4,06,00,00,
133502124,00000401,false,Rx,0,8,10,2A,19,8E,1D,8E,20,8E,
133502212,0000012A,false,Rx,0,8,0E,2A,17,8E,1B,8E,19,8E,
133502297,0000020A,false,Rx,0,6,F6,15,09,82,18,01,00,00,
133502422,0000014A,false,Rx,0,8,02,0A,C2,06,FE,06,FF,7F,
133502508,0000074A,false,Rx,0,8,01,00,00,00,00,00,00,00,
133502593,0000022A,false,Rx,0,4,00,00,D9,15,00,00,00,00,
133502711,000003A1,false,Rx,0,8,03,00,00,00,00,00,10,A4,
133502797,00000401,false,Rx,0,8,11,2A,1B,8E,25,8E,1F,8E,
133502882,00000272,false,Rx,0,8,00,00,00,00,00,00,00,00,
133502968,0000013D,false,Rx,0,6,00,00,00,00,FF,00,00,00,
133503085,000002B2,false,Rx,0,5,00,00,00,00,00,00,00,00,
133503173,0000012A,false,Rx,0,8,0F,2A,1C,8E,1C,8E,28,8E,
133503258,00000401,false,Rx,0,8,12,2A,17,8E,20,8E,12,8E,
133503344,00000432,false,Rx,0,2,1C,00,00,00,00,00,00,00,
133503437,0000073D,false,Rx,0,8,05,E0,AC,E5,AC,02,00,00,
133503523,0000076C,false,Rx,0,8,64,F5,02,4B,99,56,C8,0C,
133503641,0000012A,false,Rx,0,8,10,2A,19,8E,1D,8E,20,8E,
133503727,00000401,false,Rx,0,8,13,2A,18,8E,1D,8E,17,8E,
133503845,00000232,false,Rx,0,8,4A,00,D3,09,CB,04,00,00,
133503930,00000152,false,Rx,0,8,01,2A,2F,C3,B4,C3,89,C3,
133504047,00000172,false,Rx,0,8,01,2A,D9,84,F5,84,1F,85,
133504133,000003B2,false,Rx,0,8,A2,0D,FB,FF,00,57,BB,06,
133504220,00000401,false,Rx,0,8,14,2A,14,8E,13,8E,1F,8E,
133504305,00000712,false,Rx,0,8,03,00,00,00,00,00,00,00,
133504399,0000012A,false,Rx,0,8,11,2A,1B,8E,24,8E,1E,8E,
133504485,00000401,false,Rx,0,8,15,2A,14,8E,12,8E,12,8E,
133504570,0000020A,false,Rx,0,6,F6,15,09,82,18,01,00,00,
133504655,0000022A,false,Rx,0,4,00,00,D9,15,00,00,00,00,
133504773,0000012A,false,Rx,0,8,12,2A,17,8E,20,8E,12,8E,
133504859,00000401,false,Rx,0,8,16,2A,1E,8E,1C,8E,1E,8E,
133504944,0000013D,false,Rx,0,6,00,00,00,00,FF,00,00,00,
133505030,0000073D,false,Rx,0,8,06,00,00,A0,02,29,00,00,
133505115,00000401,false,Rx,0,8,17,2A,1B,8E,1A,8E,1E,8E,
133505203,0000012A,false,Rx,0,8,13,2A,18,8E,1C,8E,18,8E,
133505288,0000076C,false,Rx,0,8,66,D1,F1,0D,00,00,00,00,
133505413,00000401,false,Rx,0,8,18,2A,11,8E,0F,8E,10,8E,
133505498,00000232,false,Rx,0,8,4A,00,D5,09,CC,04,00,00,
133505584,000003B2,false,Rx,0,8,A2,0D,FB,FF,00,57,BB,06,
133505669,0000012A,false,Rx,0,8,14,2A,14,8E,13,8E,1F,8E,
133505755,00000401,false,Rx,0,8,19,2A,0F,8E,0C,8E,0C,8E,
133505840,00000712,false,Rx,0,8,04,00,00,00,00,00,00,00,
133505926,0000012A,false,Rx,0,8,15,2A,14,8E,11,8E,12,8E,
133506011,00000401,false,Rx,0,8,1A,2A,12,8E,0E,8E,14,8E,
133506129,00000221,false,Rx,0,8,21,01,55,00,00,00,00,9A,
133506216,0000014A,false,Rx,0,8,03,00,00,00,00,00,00,00,
